Sample in Buffer,Sample in Window,TRIGGER,top_i/DataPath_xN_0/U0/coreArea_3_core/axi/int_bus_payload_tuser[5:0],top_i/DataPath_xN_0/U0/coreArea_3_core/ln/rmsNorm/rsqrtIn_payload[31:0],top_i/DataPath_xN_0/U0/coreArea_3_core/ln/rmsNorm/io_toBeNorm_payload[15:0],top_i/DataPath_xN_0/U0/coreArea_3_core/ln/rmsNorm/io_normOut_payload[15:0],top_i/DataPath_xN_0/U0/coreArea_3_core/stateGen_4/status_layerCnt[4:0],top_i/DataPath_xN_0/U0/coreArea_3_core/stateGen_4/status_token[9:0],top_i/DataPath_xN_0/U0/coreArea_3_core/ln/rmsNorm/io_normOut_valid,top_i/DataPath_xN_0/U0/coreArea_3_core/ln/rmsNorm/io_toBeNorm_valid,top_i/DataPath_xN_0/U0/coreArea_3_core/ln/rmsNorm/isAttnLn,top_i/DataPath_xN_0/U0/coreArea_3_core/ln/rmsNorm/rsqrtIn_valid
Radix - UNSIGNED,UNSIGNED,UNSIGNED,HEX,HEX,HEX,HEX,HEX,HEX,HEX,HEX,HEX,HEX
0,0,0,0b,3ac19c1f,9f7d,9488,00,000,0,0,0,0
1,1,0,0b,3ac19c1f,9f7d,9488,00,000,0,0,0,0
2,2,0,0b,3ac19c1f,9f7d,9488,00,000,0,0,0,0
3,3,0,0b,3ac19c1f,9f7d,9488,00,000,0,0,0,0
4,4,0,0b,3ac19c1f,9f7d,9488,00,000,0,0,0,0
5,5,0,0b,3ac19dff,9f7d,9488,00,000,0,0,0,0
6,6,0,0b,3ac19dff,2313,9488,00,000,0,1,0,0
7,7,0,0b,3ac19dff,27f6,9488,00,000,0,0,0,0
8,8,0,0b,3ac19dff,27f6,9488,00,000,0,0,0,0
9,9,0,0b,3ac19dff,27f6,9488,00,000,0,0,0,0
10,10,0,0b,3ac19dff,27f6,9488,00,000,0,0,0,0
11,11,0,0b,3ac19dff,27f6,9488,00,000,0,0,0,0
12,12,0,0b,3ac19dff,27f6,9488,00,000,0,0,0,0
13,13,0,0b,3ac1aa61,27f6,9488,00,000,0,0,0,0
14,14,0,0b,3ac1aa61,a9d9,9488,00,000,0,1,0,0
15,15,0,0b,3ac1aa61,27f6,9488,00,000,0,0,0,0
16,16,0,0b,3ac1aa61,27f6,9488,00,000,0,0,0,0
17,17,0,0b,3ac1aa61,27f6,9488,00,000,0,0,0,0
18,18,0,0b,3ac1aa61,27f6,9488,00,000,0,0,0,0
19,19,0,0b,3ac1aa61,27f6,9488,00,000,0,0,0,0
20,20,0,0b,3ac1aa61,27f6,9488,00,000,0,0,0,0
21,21,0,0b,3ac1aa61,27f6,9488,00,000,0,0,0,0
22,22,0,0b,3ac1af24,27f6,9488,00,000,0,0,0,0
23,23,0,0b,3ac1af24,27f6,9488,00,000,0,0,0,0
24,24,0,0b,3ac1af24,27f6,9488,00,000,0,0,0,0
25,25,0,0b,3ac1af24,27f6,9488,00,000,0,0,0,0
26,26,0,0b,3ac1af24,27f6,9488,00,000,0,0,0,0
27,27,0,0b,3ac1af24,27f6,9488,00,000,0,0,0,0
28,28,0,0b,3ac1af24,27f6,9488,00,000,0,0,0,0
29,29,0,0b,3ac1af24,27f6,9488,00,000,0,0,0,0
30,30,0,0b,3ac1b2fe,27f6,9488,00,000,0,0,0,0
31,31,0,0b,3ac1b2fe,27f6,9488,00,000,0,0,0,0
32,32,0,0b,3ac1b2fe,27f6,9488,00,000,0,0,0,0
33,33,0,0b,3ac1b2fe,27f6,9488,00,000,0,0,0,0
34,34,0,0b,3ac1b2fe,27f6,9488,00,000,0,0,0,0
35,35,0,0b,3ac1b2fe,27f6,9488,00,000,0,0,0,0
36,36,0,0b,3ac1b2fe,27f6,9488,00,000,0,0,0,0
37,37,0,0b,3ac1b2fe,27f6,9488,00,000,0,0,0,0
38,38,0,0b,3ac1b48e,27f6,9488,00,000,0,0,0,0
39,39,0,0b,3ac1b48e,27f6,9488,00,000,0,0,0,0
40,40,0,0b,3ac1b48e,27f6,9488,00,000,0,0,0,0
41,41,0,0b,3ac1b48e,27f6,9488,00,000,0,0,0,0
42,42,0,0b,3ac1b48e,27f6,9488,00,000,0,0,0,0
43,43,0,0b,3ac1b48e,27f6,9488,00,000,0,0,0,0
44,44,0,0b,3ac1b48e,27f6,9488,00,000,0,0,0,0
45,45,0,0b,3ac1b48e,27f6,9488,00,000,0,0,0,0
46,46,0,0b,3ac1c5a7,27f6,9488,00,000,0,0,0,0
47,47,0,0b,3ac1c5a7,a09b,9488,00,000,0,0,0,0
48,48,0,0b,3ac1c5a7,a8cf,9488,00,000,0,0,0,0
49,49,0,0b,3ac1c5a7,257f,9488,00,000,0,0,0,0
50,50,0,0b,3ac1c5a7,24d1,9488,00,000,0,0,0,0
51,51,0,0b,3ac1c5a7,258e,9488,00,000,0,0,0,0
52,52,0,0b,3ac1c5a7,a6ad,9488,00,000,0,0,0,0
53,53,0,0b,3ac1c5a7,a126,9488,00,000,0,0,0,0
54,54,0,0b,3ac1c5a7,2450,9488,00,000,0,0,0,0
55,55,0,0b,3ac1c5a7,85bd,9488,00,000,0,0,0,0
56,56,0,0b,3ac1c5a7,a221,9488,00,000,0,0,0,0
57,57,0,0b,3ac1c5a7,22d2,9488,00,000,0,0,0,0
58,58,0,0b,3ac1c5a7,1599,9488,00,000,0,0,0,0
59,59,0,0b,3ac1c5a7,a167,9488,00,000,0,0,0,0
60,60,0,0b,3ac1c5a7,2840,9488,00,000,0,0,0,0
61,61,0,0b,3ac1c5a7,a48b,9488,00,000,0,0,0,0
62,62,0,0b,3ac1c5a7,2948,9488,00,000,0,0,0,0
63,63,0,0b,3ac1c5a7,118c,9488,00,000,0,0,0,0
64,64,0,0b,3ac1c5a7,a4d4,9488,00,000,0,1,0,0
65,65,0,0b,3ac1c5a7,2174,9488,00,000,0,0,0,0
66,66,0,0b,3ac1c5a7,27ce,9488,00,000,0,0,0,0
67,67,0,0b,3ac1c5a7,a96b,9488,00,000,0,0,0,0
68,68,0,0b,3ac1c5a7,2898,9488,00,000,0,1,0,0
69,69,0,0b,3ac1c5a7,a189,9488,00,000,0,0,0,0
70,70,0,0b,3ac1c5a7,2475,9488,00,000,0,0,0,0
71,71,0,0b,3ac1c5a7,22ff,9488,00,000,0,0,0,0
72,72,0,0b,3ac1c5a7,9d64,9488,00,000,0,1,0,0
73,73,0,0b,3ac1c5a7,16a7,9488,00,000,0,0,0,0
74,74,0,0b,3ac1c5a7,12ef,9488,00,000,0,0,0,0
75,75,0,0b,3ac1c5a7,a6b9,9488,00,000,0,0,0,0
76,76,0,0b,3ac1c5a7,28c7,9488,00,000,0,1,0,0
77,77,0,0b,3ac1c5a7,a7ad,9488,00,000,0,0,0,0
78,78,0,0b,3ac1c5a7,a189,9488,00,000,0,0,0,0
79,79,0,0b,3ac1c5a7,266d,9488,00,000,0,0,0,0
80,80,0,0b,3ac1c5a7,2757,9488,00,000,0,1,0,0
81,81,0,0b,3ac1c5a7,258f,9488,00,000,0,0,0,0
82,82,0,0b,3ac1c5a7,a189,9488,00,000,0,0,0,0
83,83,0,0b,3ac1c5a7,a189,9488,00,000,0,0,0,0
84,84,0,0b,3ac1c5a7,2c82,9488,00,000,0,1,0,0
85,85,0,0b,3ac1c5a7,a189,9488,00,000,0,0,0,0
86,86,0,0b,3ac1c5a7,1e86,9488,00,000,0,0,0,0
87,87,0,0b,3ac1c5a7,9f43,9488,00,000,0,0,0,0
88,88,0,0b,3ac1c5a7,9d38,9488,00,000,0,1,0,0
89,89,0,0b,3ac1c5a7,1d19,9488,00,000,0,0,0,0
90,90,0,0b,3ac1c5a7,1e86,9488,00,000,0,0,0,0
91,91,0,0b,3ac1c5a7,a1fe,9488,00,000,0,0,0,0
92,92,0,0b,3ac1c5a7,a90e,9488,00,000,0,1,0,0
93,93,0,0b,3ac1c5a7,1578,9488,00,000,0,0,0,0
94,94,0,0b,3ac1c5a7,1ac4,9488,00,000,0,0,0,0
95,95,0,0b,3ac1c5a7,a1fe,9488,00,000,0,0,0,0
96,96,0,0b,3ac1c891,9f8a,9488,00,000,0,1,0,0
97,97,0,0b,3ac1c891,a1fe,9488,00,000,0,0,0,0
98,98,0,0b,3ac1c891,92d7,9488,00,000,0,0,0,0
99,99,0,0b,3ac1c891,a48f,9488,00,000,0,0,0,0
100,100,0,0b,3ac1d31f,a562,9488,00,000,0,0,0,0
101,101,0,0b,3ac1d31f,28e8,9488,00,000,0,0,0,0
102,102,0,0b,3ac1d31f,92d7,9488,00,000,0,0,0,0
103,103,0,0b,3ac1d31f,92d7,9488,00,000,0,0,0,0
104,104,0,0b,3ac1d359,9842,9488,00,000,0,1,0,0
105,105,0,0b,3ac1d359,92d7,9488,00,000,0,0,0,0
106,106,0,0b,3ac1d359,a5bd,9488,00,000,0,0,0,0
107,107,0,0b,3ac1d359,2655,9488,00,000,0,0,0,0
108,108,0,0b,3ac1dec2,2246,9488,00,000,0,0,0,0
109,109,0,0b,3ac1dec2,a335,9488,00,000,0,1,0,0
110,110,0,0b,3ac1dec2,a5bd,9488,00,000,0,0,0,0
111,111,0,0b,3ac1dec2,a5bd,9488,00,000,0,0,0,0
112,112,0,0b,3ac1e57e,a5bd,9488,00,000,0,0,0,0
113,113,0,0b,3ac1e57e,a5bd,9488,00,000,0,0,0,0
114,114,0,0b,3ac1e57e,a103,9488,00,000,0,0,0,0
115,115,0,0b,3ac1e57e,2193,9488,00,000,0,0,0,0
116,116,0,0b,3ac20e22,a8a7,9488,00,000,0,1,0,0
117,117,0,0b,3ac20e22,8fb2,9488,00,000,0,0,0,0
118,118,0,0b,3ac20e22,a103,9488,00,000,0,0,0,0
119,119,0,0b,3ac20e22,a103,9488,00,000,0,0,0,0
120,120,0,0b,3ac20e58,a103,9488,00,000,0,0,0,0
121,121,0,0b,3ac20e58,a103,9488,00,000,0,0,0,0
122,122,0,0b,3ac20e58,a435,9488,00,000,0,0,0,0
123,123,0,0b,3ac20e58,a2a1,9488,00,000,0,0,0,0
124,124,0,0b,3ac21b1f,2ac5,9488,00,000,0,1,0,0
125,125,0,0b,3ac21b1f,9137,9488,00,000,0,0,0,0
126,126,0,0b,3ac21b1f,a435,9488,00,000,0,0,0,0
127,127,0,0b,3ac21b1f,a435,9488,00,000,0,0,0,0
128,128,0,0b,3ac21b91,a435,9488,00,000,0,0,0,0
129,129,0,0b,3ac21b91,a435,9488,00,000,0,0,0,0
130,130,0,0b,3ac21b91,92e2,9488,00,000,0,0,0,0
131,131,0,0b,3ac21b91,a710,9488,00,000,0,0,0,0
132,132,0,0b,3ac21b91,2946,9488,00,000,0,1,0,0
133,133,0,0b,3ac21b91,a4f0,9488,00,000,0,0,0,0
134,134,0,0b,3ac21b91,92e2,9488,00,000,0,0,0,0
135,135,0,0b,3ac21b91,92e2,9488,00,000,0,0,0,0
136,136,0,0b,3ac21b9a,92e2,9488,00,000,0,0,0,0
137,137,0,0b,3ac21b9a,92e2,9488,00,000,0,0,0,0
138,138,0,0b,3ac21b9a,92e2,9488,00,000,0,0,0,0
139,139,0,0b,3ac21b9a,92e2,9488,00,000,0,0,0,0
140,140,0,0b,3ac21b9a,aa96,9488,00,000,0,1,0,0
141,141,0,0b,3ac21d39,1be1,9488,00,000,0,0,0,0
142,142,0,0b,3ac21d39,a8fa,9488,00,000,0,0,0,0
143,143,0,0b,3ac21d39,2868,9488,00,000,0,0,0,0
144,144,0,0b,3ac21d39,25e3,9488,00,000,0,0,0,0
145,145,0,0b,3ac21d39,25e3,9488,00,000,0,0,0,0
146,146,0,0b,3ac21d39,25e3,9488,00,000,0,0,0,0
147,147,0,0b,3ac21d39,25e3,9488,00,000,0,0,0,0
148,148,0,0b,3ac2280c,aa3a,9488,00,000,0,1,0,0
149,149,0,0b,3ac2280c,a69a,9488,00,000,0,0,0,0
150,150,0,0b,3ac2280c,2740,9488,00,000,0,0,0,0
151,151,0,0b,3ac2280c,1c78,9488,00,000,0,0,0,0
152,152,0,0b,3ac2280c,19e6,9488,00,000,0,0,0,0
153,153,0,0b,3ac2280c,19e6,9488,00,000,0,0,0,0
154,154,0,0b,3ac2280c,19e6,9488,00,000,0,0,0,0
155,155,0,0b,3ac2280c,19e6,9488,00,000,0,0,0,0
156,156,0,0b,3ac23ef5,22a7,9488,00,000,0,0,0,0
157,157,0,0b,3ac23ef5,a059,9488,00,000,0,0,0,0
158,158,0,0b,3ac23ef5,a802,9488,00,000,0,1,0,0
159,159,0,0b,3ac23ef5,253a,9488,00,000,0,0,0,0
160,160,0,0b,3ac23ef5,22a7,9488,00,000,0,0,0,0
161,161,0,0b,3ac23ef5,22a7,9488,00,000,0,0,0,0
162,162,0,0b,3ac23ef5,22a7,9488,00,000,0,0,0,0
163,163,0,0b,3ac23ef5,22a7,9488,00,000,0,0,0,0
164,164,0,0b,3ac24cdd,a66b,9488,00,000,0,0,0,0
165,165,0,0b,3ac24cdd,2440,9488,00,000,0,0,0,0
166,166,0,0b,3ac24cdd,2919,9488,00,000,0,1,0,0
167,167,0,0b,3ac24cdd,1c13,9488,00,000,0,0,0,0
168,168,0,0b,3ac24cdd,a66b,9488,00,000,0,0,0,0
169,169,0,0b,3ac24cdd,a66b,9488,00,000,0,0,0,0
170,170,0,0b,3ac24cdd,a66b,9488,00,000,0,0,0,0
171,171,0,0b,3ac24cdd,a66b,9488,00,000,0,0,0,0
172,172,0,0b,3ac2628d,a66b,9488,00,000,0,0,0,0
173,173,0,0b,3ac2628d,1e55,9488,00,000,0,0,0,0
174,174,0,0b,3ac2628d,9750,9488,00,000,0,1,0,0
175,175,0,0b,3ac2628d,9d42,9488,00,000,0,0,0,0
176,176,0,0b,3ac2628d,a3d0,9488,00,000,0,0,0,0
177,177,0,0b,3ac2628d,1e55,9488,00,000,0,0,0,0
178,178,0,0b,3ac2628d,1e55,9488,00,000,0,0,0,0
179,179,0,0b,3ac2628d,1e55,9488,00,000,0,0,0,0
180,180,0,0b,3ac275ef,1e55,9488,00,000,0,0,0,0
181,181,0,0b,3ac275ef,2cd4,9488,00,000,0,0,0,0
182,182,0,0b,3ac275ef,2936,9488,00,000,0,1,0,0
183,183,0,0b,3ac275ef,2e8c,9488,00,000,0,0,0,0
184,184,0,0b,3ac275ef,a42c,9488,00,000,0,0,0,0
185,185,0,0b,3ac275ef,2cd4,9488,00,000,0,0,0,0
186,186,0,0b,3ac275ef,2cd4,9488,00,000,0,0,0,0
187,187,0,0b,3ac275ef,2cd4,9488,00,000,0,0,0,0
188,188,0,0b,3ac275ef,2cd4,9488,00,000,0,0,0,0
189,189,0,0b,3ac275ef,a6ec,9488,00,000,0,0,0,0
190,190,0,0b,3ac27df7,24e6,9488,00,000,0,0,0,0
191,191,0,0b,3ac27df7,249e,9488,00,000,0,1,0,0
192,192,0,0b,3ac27df7,285d,9488,00,000,0,0,0,0
193,193,0,0b,3ac27df7,a6ec,9488,00,000,0,0,0,0
194,194,0,0b,3ac27df7,a6ec,9488,00,000,0,0,0,0
195,195,0,0b,3ac27df7,a6ec,9488,00,000,0,0,0,0
196,196,0,0b,3ac27df7,a6ec,9488,00,000,0,0,0,0
197,197,0,0b,3ac27df7,a6ec,9488,00,000,0,0,0,0
198,198,0,0b,3ac28af6,2449,9488,00,000,0,0,0,0
199,199,0,0b,3ac28af6,3223,9488,00,000,0,1,0,0
200,200,0,0b,3ac28af6,a46a,9488,00,000,0,0,0,0
201,201,0,0b,3ac28af6,9c2a,9488,00,000,0,0,0,0
202,202,0,0b,3ac28af6,2449,9488,00,000,0,0,0,0
203,203,0,0b,3ac28af6,2449,9488,00,000,0,0,0,0
204,204,0,0b,3ac28af6,2449,9488,00,000,0,0,0,0
205,205,0,0b,3ac28af6,2449,9488,00,000,0,0,0,0
206,206,0,0b,3ac28afc,2449,9488,00,000,0,0,0,0
207,207,0,0b,3ac28afc,2044,9488,00,000,0,1,0,0
208,208,0,0b,3ac28afc,a5d2,9488,00,000,0,0,0,0
209,209,0,0b,3ac28afc,aadc,9488,00,000,0,0,0,0
210,210,0,0b,3ac28afc,9ccd,9488,00,000,0,0,0,0
211,211,0,0b,3ac28afc,2498,9488,00,000,0,0,0,0
212,212,0,0b,3ac28afc,2498,9488,00,000,0,0,0,0
213,213,0,0b,3ac28afc,2498,9488,00,000,0,0,0,0
214,214,0,0b,3ac29890,2498,9488,00,000,0,0,0,0
215,215,0,0b,3ac29890,a08d,9488,00,000,0,0,0,0
216,216,0,0b,3ac29890,2b93,9488,00,000,0,1,0,0
217,217,0,0b,3ac29890,2ad0,9488,00,000,0,0,0,0
218,218,0,0b,3ac29890,9cce,9488,00,000,0,0,0,0
219,219,0,0b,3ac29890,a08d,9488,00,000,0,0,0,0
220,220,0,0b,3ac29890,a08d,9488,00,000,0,0,0,0
221,221,0,0b,3ac29890,a08d,9488,00,000,0,0,0,0
222,222,0,0b,3ac29890,a08d,9488,00,000,0,0,0,0
223,223,0,0b,3ac29b3a,1cf3,9488,00,000,0,0,0,0
224,224,0,0b,3ac29b3a,1512,9488,00,000,0,0,0,0
225,225,0,0b,3ac29b3a,abfe,9488,00,000,0,1,0,0
226,226,0,0b,3ac29b3a,a9fe,9488,00,000,0,0,0,0
227,227,0,0b,3ac29b3a,1cf3,9488,00,000,0,0,0,0
228,228,0,0b,3ac29b3a,1cf3,9488,00,000,0,0,0,0
229,229,0,0b,3ac29b3a,1cf3,9488,00,000,0,0,0,0
230,230,0,0b,3ac29b3a,1cf3,9488,00,000,0,0,0,0
231,231,0,0b,3ac3c881,2827,9488,00,000,0,0,0,0
232,232,0,0b,3ac3c881,2627,9488,00,000,0,0,0,0
233,233,0,0b,3ac3c881,29a3,9488,00,000,0,1,0,0
234,234,0,0b,3ac3c881,0fbf,9488,00,000,0,0,0,0
235,235,0,0b,3ac3c881,2827,9488,00,000,0,0,0,0
236,236,0,0b,3ac3c881,2827,9488,00,000,0,0,0,0
237,237,0,0b,3ac3c881,2827,9488,00,000,0,0,0,0
238,238,0,0b,3ac3c881,2827,9488,00,000,0,0,0,0
239,239,0,0b,3ac3c912,2827,9488,00,000,0,0,0,0
240,240,0,0b,3ac3c912,22f6,9488,00,000,0,0,0,0
241,241,0,0b,3ac3c912,1dbd,9488,00,000,0,1,0,0
242,242,0,0b,3ac3c912,a49a,9488,00,000,0,0,0,0
243,243,0,0b,3ac3c912,9ee8,9488,00,000,0,0,0,0
244,244,0,0b,3ac3c912,22f6,9488,00,000,0,0,0,0
245,245,0,0b,3ac3c912,22f6,9488,00,000,0,0,0,0
246,246,0,0b,3ac3c912,22f6,9488,00,000,0,0,0,0
247,247,0,0b,3ac3c912,22f6,9488,00,000,0,0,0,0
248,248,0,0b,3ac3e5c1,a6b0,9488,00,000,0,0,0,0
249,249,0,0b,3ac3e5c1,a6bb,9488,00,000,0,1,0,0
250,250,0,0b,3ac3e5c1,210d,9488,00,000,0,0,0,0
251,251,0,0b,3ac3e5c1,9c63,9488,00,000,0,0,0,0
252,252,0,0b,3ac3e5c1,a6b0,9488,00,000,0,0,0,0
253,253,0,0b,3ac3e5c1,a6b0,9488,00,000,0,0,0,0
254,254,0,0b,3ac3e5c1,a6b0,9488,00,000,0,0,0,0
255,255,0,0b,3ac3e5c1,a6b0,9488,00,000,0,0,0,0
256,256,0,0b,3ac3e5c1,280e,9488,00,000,0,0,0,0
257,257,0,0b,3ac405b1,2060,9488,00,000,0,0,0,0
258,258,0,0b,3ac405b1,a819,9488,00,000,0,1,0,0
259,259,0,0b,3ac405b1,a3b6,9488,00,000,0,0,0,0
260,260,0,0b,3ac405b1,280e,9488,00,000,0,0,0,0
261,261,0,0b,3ac405b1,280e,9488,00,000,0,0,0,0
262,262,0,0b,3ac405b1,280e,9488,00,000,0,0,0,0
263,263,0,0b,3ac405b1,280e,9488,00,000,0,0,0,0
264,264,0,0b,3ac405b1,a51e,9488,00,000,0,0,0,0
265,265,0,0b,3ac41594,25fd,9488,00,000,0,0,0,0
266,266,0,0b,3ac41594,a0f2,9488,00,000,0,1,0,0
267,267,0,0b,3ac41594,a6c3,9488,00,000,0,0,0,0
268,268,0,0b,3ac41594,a51e,9488,00,000,0,0,0,0
269,269,0,0b,3ac41594,a51e,9488,00,000,0,0,0,0
270,270,0,0b,3ac41594,a51e,9488,00,000,0,0,0,0
271,271,0,0b,3ac41594,a51e,9488,00,000,0,0,0,0
272,272,0,0b,3ac41594,a51e,9488,00,000,0,0,0,0
273,273,0,0b,3ac415d6,a51e,9488,00,000,0,0,0,0
274,274,0,0b,3ac415d6,2a9c,9488,00,000,0,1,0,0
275,275,0,0b,3ac415d6,25fd,9488,00,000,0,0,0,0
276,276,0,0b,3ac415d6,25fd,9488,00,000,0,0,0,0
277,277,0,0b,3ac415d6,25fd,9488,00,000,0,0,0,0
278,278,0,0b,3ac415d6,25fd,9488,00,000,0,0,0,0
279,279,0,0b,3ac415d6,25fd,9488,00,000,0,0,0,0
280,280,0,0b,3ac415d6,25fd,9488,00,000,0,0,0,0
281,281,0,0b,3ac41b80,25fd,9488,00,000,0,0,0,0
282,282,0,0b,3ac41b80,a696,9488,00,000,0,1,0,0
283,283,0,0b,3ac41b80,25fd,9488,00,000,0,0,0,0
284,284,0,0b,3ac41b80,25fd,9488,00,000,0,0,0,0
285,285,0,0b,3ac41b80,25fd,9488,00,000,0,0,0,0
286,286,0,0b,3ac41b80,25fd,9488,00,000,0,0,0,0
287,287,0,0b,3ac41b80,25fd,9488,00,000,0,0,0,0
288,288,0,0b,3ac41b80,25fd,9488,00,000,0,0,0,0
289,289,0,0b,3ac41b80,25fd,9488,00,000,0,0,0,0
290,290,0,0b,3ac423e5,25fd,9488,00,000,0,0,0,0
291,291,0,0b,3ac423e5,25fd,9488,00,000,0,0,0,0
292,292,0,0b,3ac423e5,25fd,9488,00,000,0,0,0,0
293,293,0,0b,3ac423e5,25fd,9488,00,000,0,0,0,0
294,294,0,0b,3ac423e5,25fd,9488,00,000,0,0,0,0
295,295,0,0b,3ac423e5,25fd,9488,00,000,0,0,0,0
296,296,0,0b,3ac423e5,25fd,9488,00,000,0,0,0,0
297,297,0,0b,3ac423e5,25fd,9488,00,000,0,0,0,0
298,298,0,0b,3ac424a8,25fd,9488,00,000,0,0,0,0
299,299,0,0b,3ac424a8,25fd,9488,00,000,0,0,0,0
300,300,0,0b,3ac424a8,25fd,9488,00,000,0,0,0,0
301,301,0,0b,3ac424a8,25fd,9488,00,000,0,0,0,0
302,302,0,0b,3ac424a8,25fd,9488,00,000,0,0,0,0
303,303,0,0b,3ac424a8,25fd,9488,00,000,0,0,0,0
304,304,0,0b,3ac424a8,25fd,9488,00,000,0,0,0,0
305,305,0,0b,3ac424a8,25fd,9488,00,000,0,0,0,0
306,306,0,0b,3ac43a80,25fd,9488,00,000,0,0,0,0
307,307,0,0b,3ac43a80,25fd,9488,00,000,0,0,0,0
308,308,0,0b,3ac43a80,25fd,9488,00,000,0,0,0,0
309,309,0,0b,3ac43a80,25fd,9488,00,000,0,0,0,0
310,310,0,0b,3ac43a80,25fd,9488,00,000,0,0,0,0
311,311,0,0b,3ac43a80,25fd,9488,00,000,0,0,0,0
312,312,0,0b,3ac43a80,25fd,9488,00,000,0,0,0,0
313,313,0,0b,3ac43a80,25fd,9488,00,000,0,0,0,0
314,314,0,0b,3ac43fec,25fd,9488,00,000,0,0,0,0
315,315,0,0b,3ac43fec,a183,9488,00,000,0,0,0,0
316,316,0,0b,3ac43fec,a43a,9488,00,000,0,0,0,0
317,317,0,0b,3ac43fec,a6ca,9488,00,000,0,0,0,0
318,318,0,0b,3ac43fec,9ac3,9488,00,000,0,0,0,0
319,319,0,0b,3ac43fec,24f3,9488,00,000,0,0,0,0
320,320,0,0b,3ac43fec,a034,9488,00,000,0,0,0,0
321,321,0,0b,3ac43fec,27c5,9488,00,000,0,0,0,0
322,322,0,0b,3ac43fec,26db,9488,00,000,0,0,0,0
323,323,0,0b,3ac43fec,a289,9488,00,000,0,0,0,0
324,324,0,0b,3ac43fec,1fe0,9488,00,000,0,0,0,0
325,325,0,0b,3ac43fec,1ec8,9488,00,000,0,0,0,0
326,326,0,0b,3ac43fec,221c,9488,00,000,0,0,0,0
327,327,0,0b,3ac43fec,1af5,9488,00,000,0,0,0,0
328,328,0,0b,3ac43fec,277c,9488,00,000,0,0,0,0
329,329,0,0b,3ac43fec,279b,9488,00,000,0,0,0,0
330,330,0,0b,3ac43fec,9b32,9488,00,000,0,0,0,0
331,331,0,0b,3ac43fec,94b1,9488,00,000,0,0,0,0
332,332,0,0b,3ac43fec,ac1e,9488,00,000,0,1,0,0
333,333,0,0b,3ac43fec,2736,9488,00,000,0,0,0,0
334,334,0,0b,3ac43fec,9383,9488,00,000,0,0,0,0
335,335,0,0b,3ac43fec,15b5,9488,00,000,0,0,0,0
336,336,0,0b,3ac43fec,a4c9,9488,00,000,0,1,0,0
337,337,0,0b,3ac43fec,2941,9488,00,000,0,0,0,0
338,338,0,0b,3ac43fec,16ad,9488,00,000,0,0,0,0
339,339,0,0b,3ac43fec,2201,9488,00,000,0,0,0,0
340,340,0,0b,3ac43fec,2aa9,9488,00,000,0,1,0,0
341,341,0,0b,3ac43fec,29bc,9488,00,000,0,0,0,0
342,342,0,0b,3ac43fec,a89e,9488,00,000,0,0,0,0
343,343,0,0b,3ac43fec,255f,9488,00,000,0,0,0,0
344,344,0,0b,3ac43fec,2a8d,9488,00,000,0,1,0,0
345,345,0,0b,3ac43fec,a810,9488,00,000,0,0,0,0
346,346,0,0b,3ac43fec,9f79,9488,00,000,0,0,0,0
347,347,0,0b,3ac43fec,28ea,9488,00,000,0,0,0,0
348,348,0,0b,3ac43fec,25f2,9488,00,000,0,1,0,0
349,349,0,0b,3ac43fec,a291,9488,00,000,0,0,0,0
350,350,0,0b,3ac43fec,9f79,9488,00,000,0,0,0,0
351,351,0,0b,3ac43fec,9f79,9488,00,000,0,0,0,0
352,352,0,0b,3ac43fec,240d,9488,00,000,0,1,0,0
353,353,0,0b,3ac43fec,9f79,9488,00,000,0,0,0,0
354,354,0,0b,3ac43fec,230f,9488,00,000,0,0,0,0
355,355,0,0b,3ac43fec,2430,9488,00,000,0,0,0,0
356,356,0,0b,3ac43fec,29d1,9488,00,000,0,1,0,0
357,357,0,0b,3ac43fec,a647,9488,00,000,0,0,0,0
358,358,0,0b,3ac43fec,230f,9488,00,000,0,0,0,0
359,359,0,0b,3ac43fec,981b,9488,00,000,0,0,0,0
360,360,0,0b,3ac43fec,2a03,9488,00,000,0,1,0,0
361,361,0,0b,3ac43fec,a2af,9488,00,000,0,0,0,0
362,362,0,0b,3ac43fec,a24f,9488,00,000,0,0,0,0
363,363,0,0b,3ac43fec,981b,9488,00,000,0,0,0,0
364,364,0,0b,3ac461d3,2a95,9488,00,000,0,1,0,0
365,365,0,0b,3ac461d3,981b,9488,00,000,0,0,0,0
366,366,0,0b,3ac461d3,2b72,9488,00,000,0,0,0,0
367,367,0,0b,3ac461d3,1f07,9488,00,000,0,0,0,0
368,368,0,0b,3ac464b0,0800,9488,00,000,0,0,0,0
369,369,0,0b,3ac464b0,2439,9488,00,000,0,0,0,0
370,370,0,0b,3ac464b0,2b72,9488,00,000,0,0,0,0
371,371,0,0b,3ac464b0,2b72,9488,00,000,0,0,0,0
372,372,0,0b,3ac47ade,2487,9488,00,000,0,1,0,0
373,373,0,0b,3ac47ade,2b72,9488,00,000,0,0,0,0
374,374,0,0b,3ac47ade,14aa,9488,00,000,0,0,0,0
375,375,0,0b,3ac47ade,a6af,9488,00,000,0,0,0,0
376,376,0,0b,3ac49052,a58c,9488,00,000,0,0,0,0
377,377,0,0b,3ac49052,aaee,9488,00,000,0,1,0,0
378,378,0,0b,3ac49052,14aa,9488,00,000,0,0,0,0
379,379,0,0b,3ac49052,14aa,9488,00,000,0,0,0,0
380,380,0,0b,3ac494bd,14aa,9488,00,000,0,0,0,0
381,381,0,0b,3ac494bd,14aa,9488,00,000,0,0,0,0
382,382,0,0b,3ac494bd,2267,9488,00,000,0,0,0,0
383,383,0,0b,3ac494bd,2485,9488,00,000,0,0,0,0
384,384,0,0b,3ac496cb,2ac3,9488,00,000,0,1,0,0
385,385,0,0b,3ac496cb,24db,9488,00,000,0,0,0,0
386,386,0,0b,3ac496cb,2267,9488,00,000,0,0,0,0
387,387,0,0b,3ac496cb,2267,9488,00,000,0,0,0,0
388,388,0,0b,3ac4a7b5,2267,9488,00,000,0,0,0,0
389,389,0,0b,3ac4a7b5,2267,9488,00,000,0,0,0,0
390,390,0,0b,3ac4a7b5,a8eb,9488,00,000,0,0,0,0
391,391,0,0b,3ac4a7b5,281f,9488,00,000,0,0,0,0
392,392,0,0b,3ac4b9c7,a7b7,9488,00,000,0,1,0,0
393,393,0,0b,3ac4b9c7,a3f2,9488,00,000,0,0,0,0
394,394,0,0b,3ac4b9c7,a8eb,9488,00,000,0,0,0,0
395,395,0,0b,3ac4b9c7,a8eb,9488,00,000,0,0,0,0
396,396,0,0b,3ac4cf70,a8eb,9488,00,000,0,0,0,0
397,397,0,0b,3ac4cf70,a8eb,9488,00,000,0,0,0,0
398,398,0,0b,3ac4cf70,a551,9488,00,000,0,0,0,0
399,399,0,0b,3ac4cf70,24b1,9488,00,000,0,0,0,0
400,400,0,0b,3ac4cf70,a4c9,9488,00,000,0,1,0,0
401,401,0,0b,3ac4cf70,aac5,9488,00,000,0,0,0,0
402,402,0,0b,3ac4cf70,a551,9488,00,000,0,0,0,0
403,403,0,0b,3ac4cf70,a551,9488,00,000,0,0,0,0
404,404,0,0b,3ac4d200,a551,9488,00,000,0,0,0,0
405,405,0,0b,3ac4d200,a551,9488,00,000,0,0,0,0
406,406,0,0b,3ac4d200,a551,9488,00,000,0,0,0,0
407,407,0,0b,3ac4d200,a551,9488,00,000,0,0,0,0
408,408,0,0b,3ac4d200,15c0,9488,00,000,0,1,0,0
409,409,0,0b,3ac4ea03,9c54,9488,00,000,0,0,0,0
410,410,0,0b,3ac4ea03,2470,9488,00,000,0,0,0,0
411,411,0,0b,3ac4ea03,a646,9488,00,000,0,0,0,0
412,412,0,0b,3ac4ea03,ad80,9488,00,000,0,0,0,0
