Sample in Buffer,Sample in Window,TRIGGER,top_i/DataPath_xN_0/U0/coreArea_0_core/axi/int_bus_payload_tuser[5:0],top_i/DataPath_xN_0/U0/coreArea_0_core/ln/rmsNorm/io_toBeNorm_payload[15:0],top_i/DataPath_xN_0/U0/coreArea_0_core/ln/rmsNorm/rsqrtIn_payload[31:0],top_i/DataPath_xN_0/U0/coreArea_0_core/ln/rmsNorm/io_normOut_payload[15:0],top_i/DataPath_xN_0/U0/coreArea_0_core/stateGen_4/status_token[9:0],top_i/DataPath_xN_0/U0/coreArea_0_core/stateGen_4/status_layerCnt[4:0],top_i/DataPath_xN_0/U0/coreArea_0_core/ln/rmsNorm/io_normOut_valid,top_i/DataPath_xN_0/U0/coreArea_0_core/ln/rmsNorm/io_toBeNorm_valid,top_i/DataPath_xN_0/U0/coreArea_0_core/ln/rmsNorm/isAttnLn,top_i/DataPath_xN_0/U0/coreArea_0_core/ln/rmsNorm/rsqrtIn_valid
Radix - UNSIGNED,UNSIGNED,UNSIGNED,UNSIGNED,HEX,HEX,HEX,HEX,HEX,HEX,HEX,HEX,HEX
0,0,0,5,b591,3d6065ad,aa48,000,01,0,1,1,0
1,1,0,5,b7ea,3d60b1f7,aa48,000,01,0,1,1,0
2,2,0,5,29c6,3d60b7b3,aa48,000,01,0,1,1,0
3,3,0,5,b6a4,3d60e7ab,aa48,000,01,0,1,1,0
4,4,0,5,b6a7,3d611fdc,aa48,000,01,0,1,1,0
5,5,0,5,b6b7,3d615dff,aa48,000,01,0,1,1,0
6,6,0,5,2e92,3d615e01,aa48,000,01,0,1,1,0
7,7,0,5,b6fd,3d617f6d,aa48,000,01,0,1,1,0
8,8,0,5,b786,3d61b37b,aa48,000,01,0,1,1,0
9,9,0,5,b6ce,3d61e6a3,aa48,000,01,0,1,1,0
10,10,0,5,2c78,3d61e6c9,aa48,000,01,0,1,1,0
11,11,0,5,b675,3d620c28,aa48,000,01,0,1,1,0
12,12,0,5,b6d1,3d623e17,aa48,000,01,0,1,1,0
13,13,0,5,b826,3d627440,aa48,000,01,0,1,1,0
14,14,0,5,2812,3d62759e,aa48,000,01,0,1,1,0
15,15,0,5,b57b,3d62a621,aa48,000,01,0,1,1,0
16,16,0,5,b6be,3d62df8e,aa48,000,01,0,1,1,0
17,17,0,5,b8dd,3d631a98,aa48,000,01,0,1,1,0
18,18,0,5,2cdd,3d631aaf,aa48,000,01,0,1,1,0
19,19,0,5,b641,3d634f3f,aa48,000,01,0,1,1,0
20,20,0,5,b731,3d637e15,aa48,000,01,0,1,1,0
21,21,0,5,b7f0,3d63a9df,aa48,000,01,0,1,1,0
22,22,0,5,adc1,3d63aaac,aa48,000,01,0,1,1,0
23,23,0,5,3727,3d63de38,aa48,000,01,0,1,1,0
24,24,0,5,b748,3d641427,aa48,000,01,0,1,1,0
25,25,0,5,b907,3d644e5a,aa48,000,01,0,1,1,0
26,26,0,5,a63b,3d644e80,aa48,000,01,0,1,1,0
27,27,0,5,b5eb,3d647e4e,aa48,000,01,0,1,1,0
28,28,0,5,b727,3d64bcff,aa48,000,01,0,1,1,0
29,29,0,5,b907,3d64ffe8,aa48,000,01,0,0,1,0
30,30,0,5,b907,3d6500c5,aa48,000,01,0,0,1,0
31,31,0,5,b907,3d65299c,aa48,000,01,0,0,1,0
32,32,0,5,b907,3d654898,aa48,000,01,0,0,1,0
33,33,0,5,296b,3d65873a,aa48,000,01,0,1,1,0
34,34,0,5,400c,3d6587bf,aa48,000,01,0,1,1,0
35,35,0,5,ab5f,3d65b3d8,aa48,000,01,0,1,1,0
36,36,0,5,328a,3d65e019,aa48,000,01,0,1,1,0
37,37,0,5,1f3a,3d660d30,aa48,000,01,0,1,1,0
38,38,0,5,3abf,3d660fe3,aa48,000,01,0,1,1,0
39,39,0,5,aa44,3d6640b9,aa48,000,01,0,1,1,0
40,40,0,5,29eb,3d667953,aa48,000,01,0,1,1,0
41,41,0,5,2706,3d66a7a1,aa48,000,01,0,1,1,0
42,42,0,5,3de7,3d66a8e0,aa48,000,01,0,1,1,0
43,43,0,5,298a,3d66d292,aa48,000,01,0,1,1,0
44,44,0,5,346d,3d670108,aa48,000,01,0,1,1,0
45,45,0,5,aa05,3d6745df,aa48,000,01,0,1,1,0
46,46,0,5,40f8,3d674621,aa48,000,01,0,1,1,0
47,47,0,5,aad2,3d67642a,aa48,000,01,0,1,1,0
48,48,0,5,3226,3d67919f,aa48,000,01,0,1,1,0
49,49,0,5,aa08,3d67f03b,aa48,000,01,0,1,1,0
50,50,0,5,3f49,3d67f1b5,aa48,000,01,0,1,1,0
51,51,0,5,aa8f,3d6818d1,aa48,000,01,0,1,1,0
52,52,0,5,335b,3d684c89,aa48,000,01,0,1,1,0
53,53,0,5,2dbe,3d688b8a,aa48,000,01,0,1,1,0
54,54,0,5,3f9e,3d688d9c,aa48,000,01,0,1,1,0
55,55,0,5,ad24,3d68c0c3,aa48,000,01,0,1,1,0
56,56,0,5,31b3,3d68f5c8,aa48,000,01,0,1,1,0
57,57,0,5,aabb,3d695ae1,aa48,000,01,0,1,1,0
58,58,0,5,4024,3d695b07,aa48,000,01,0,1,1,0
59,59,0,5,ae29,3d697e0d,aa48,000,01,0,1,1,0
60,60,0,5,31b4,3d69b135,aa48,000,01,0,1,1,0
61,61,0,5,ac7a,3d69b135,aa48,000,01,0,1,1,0
62,62,0,5,3e3d,3d69b135,aa48,000,01,0,1,1,0
63,63,0,5,af99,3d69b135,aa48,000,01,0,1,1,0
64,64,0,5,300d,3d69b135,aa48,000,01,0,1,1,0
65,65,0,5,2958,3d69b1aa,aa48,000,01,0,1,1,0
66,66,0,5,414f,3d6dc9ce,aa48,000,01,0,1,1,0
67,67,0,5,2e2a,3d6dcaa8,aa48,000,01,0,1,1,0
68,68,0,5,356c,3d6dd558,aa48,000,01,0,1,1,0
69,69,0,5,a6a9,3d6dd55c,aa48,000,01,0,1,1,0
70,70,0,5,3fa3,3d6e8b66,aa48,000,01,0,1,1,0
71,71,0,5,2c47,3d6e8c03,aa48,000,01,0,1,1,0
72,72,0,5,36f1,3d6e8c8f,aa48,000,01,0,1,1,0
73,73,0,5,2c7b,3d6e8cc0,aa48,000,01,0,1,1,0
74,74,0,5,3ee1,3d70ba27,aa48,000,01,0,1,1,0
75,75,0,5,2b97,3d70baa2,aa48,000,01,0,1,1,0
76,76,0,5,32e7,3d70ce38,aa48,000,01,0,1,1,0
77,77,0,5,25d7,3d70cec9,aa48,000,01,0,1,1,0
78,78,0,5,3f6a,3d76fad9,aa48,000,01,0,1,1,0
79,79,0,5,2f3b,3d76fb93,aa48,000,01,0,1,1,0
80,80,0,5,3309,3d770507,aa48,000,01,0,1,1,0
81,81,0,5,a83c,3d770598,aa48,000,01,0,1,1,0
82,82,0,5,3fc6,3d7a56c5,aa48,000,01,0,1,1,0
83,83,0,5,288e,3d7a5771,aa48,000,01,0,1,1,0
84,84,0,5,30b2,3d7a64f8,aa48,000,01,0,1,1,0
85,85,0,5,2499,3d7a6707,aa48,000,01,0,1,1,0
86,86,0,5,3daf,3d7e0760,aa48,000,01,0,1,1,0
87,87,0,5,2ef7,3d7e0907,aa48,000,01,0,1,1,0
88,88,0,5,301f,3d7e1125,aa48,000,01,0,1,1,0
89,89,0,5,a533,3d7e11db,aa48,000,01,0,1,1,0
90,90,0,5,3f96,3d812d8f,aa48,000,01,0,1,1,0
91,91,0,5,28a7,3d812ebf,aa48,000,01,0,1,1,0
92,92,0,5,b057,3d8132cf,aa48,000,01,0,1,1,0
93,93,0,5,2da7,3d813370,aa48,000,01,0,1,1,0
94,94,0,5,40e0,3d826ac4,aa48,000,01,0,1,1,0
95,95,0,5,a8ce,3d826c92,aa48,000,01,0,1,1,0
96,96,0,5,3263,3d826e9f,aa48,000,01,0,1,1,0
97,97,0,5,ae19,3d826ed8,aa48,000,01,0,1,1,0
98,98,0,5,3ffd,3d85f4a4,aa48,000,01,0,1,1,0
99,99,0,5,ac15,3d85f5d4,aa48,000,01,0,1,1,0
100,100,0,5,31c0,3d860487,aa48,000,01,0,1,1,0
101,101,0,5,2b28,3d86049d,aa48,000,01,0,1,1,0
102,102,0,5,3dfd,3d87d72b,aa48,000,01,0,1,1,0
103,103,0,5,aacd,3d87d7be,aa48,000,01,0,1,1,0
104,104,0,5,330b,3d87efd5,aa48,000,01,0,1,1,0
105,105,0,5,ae29,3d87f076,aa48,000,01,0,1,1,0
106,106,0,5,3fa7,3d896b04,aa48,000,01,0,1,1,0
107,107,0,5,9d5a,3d896b77,aa48,000,01,0,1,1,0
108,108,0,5,3145,3d89716c,aa48,000,01,0,1,1,0
109,109,0,5,a500,3d89717d,aa48,000,01,0,1,1,0
110,110,0,5,3f5b,3d8b293c,aa48,000,01,0,1,1,0
111,111,0,5,a66a,3d8b2ade,aa48,000,01,0,1,1,0
112,112,0,5,3081,3d8b310e,aa48,000,01,0,1,1,0
113,113,0,5,a915,3d8b3132,aa48,000,01,0,1,1,0
114,114,0,5,3fed,3d8d149b,aa48,000,01,0,1,1,0
115,115,0,5,a6f1,3d8d14c4,aa48,000,01,0,1,1,0
116,116,0,5,3550,3d8d1786,aa48,000,01,0,1,1,0
117,117,0,5,ac2e,3d8d1790,aa48,000,01,0,1,1,0
118,118,0,5,4005,3d8e19fd,aa48,000,01,0,1,1,0
119,119,0,5,a09a,3d8e1b81,aa48,000,01,0,1,1,0
120,120,0,5,3052,3d8e1da1,aa48,000,01,0,1,1,0
121,121,0,5,a56a,3d8e1dae,aa48,000,01,0,1,1,0
122,122,0,5,3574,3d8fea0d,aa48,000,01,0,1,1,0
123,123,0,5,a886,3d8fea39,aa48,000,01,0,1,1,0
124,124,0,5,2a17,3d8fec93,aa48,000,01,0,1,1,0
125,125,0,5,a8ee,3d8fed93,aa48,000,01,0,1,1,0
126,126,0,5,3f59,3d92e613,aa48,000,01,0,1,1,0
127,127,0,5,29bc,3d92e641,aa48,000,01,0,1,1,0
128,128,0,5,22f4,3d92eb5a,aa48,000,01,0,1,1,0
129,129,0,5,317f,3d92ec84,aa48,000,01,0,1,1,0
130,130,0,5,3f85,3d94eb04,aa48,000,01,0,1,1,0
131,131,0,5,abab,3d94eb8a,aa48,000,01,0,1,1,0
132,132,0,5,340c,3d94efac,aa48,000,01,0,1,1,0
133,133,0,5,2d16,3d94f012,aa48,000,01,0,1,1,0
134,134,0,5,4027,3d960ef2,aa48,000,01,0,1,1,0
135,135,0,5,ae5f,3d960f4f,aa48,000,01,0,1,1,0
136,136,0,5,3388,3d961582,aa48,000,01,0,1,1,0
137,137,0,5,a3a6,3d9616b2,aa48,000,01,0,1,1,0
138,138,0,5,3f17,3d97eb29,aa48,000,01,0,1,1,0
139,139,0,5,21cc,3d97eb2a,aa48,000,01,0,1,1,0
140,140,0,5,343c,3d97eea3,aa48,000,01,0,1,1,0
141,141,0,5,2764,3d97eeaf,aa48,000,01,0,1,1,0
142,142,0,5,402c,3d999f82,aa48,000,01,0,1,1,0
143,143,0,5,28f6,3d999f96,aa48,000,01,0,1,1,0
144,144,0,5,282d,3d99a220,aa48,000,01,0,1,1,0
145,145,0,5,af80,3d99a253,aa48,000,01,0,1,1,0
146,146,0,5,40c6,3d9b98df,aa48,000,01,0,1,1,0
147,147,0,5,ac42,3d9b98f7,aa48,000,01,0,1,1,0
148,148,0,5,345a,3d9ba713,aa48,000,01,0,1,1,0
149,149,0,5,aa66,3d9ba79f,aa48,000,01,0,1,1,0
150,150,0,5,4018,3d9daca2,aa48,000,01,0,1,1,0
151,151,0,5,ae59,3d9daca5,aa48,000,01,0,1,1,0
152,152,0,5,2e63,3d9daefa,aa48,000,01,0,1,1,0
153,153,0,5,2d2e,3d9daf09,aa48,000,01,0,1,1,0
154,154,0,5,3fe0,3d9dbde7,aa48,000,01,0,1,1,0
155,155,0,5,2ce7,3d9dbe10,aa48,000,01,0,1,1,0
156,156,0,5,30d0,3d9dbe5a,aa48,000,01,0,1,1,0
157,157,0,5,30da,3d9dbe8b,aa48,000,01,0,1,1,0
158,158,0,5,402e,3d9f6e72,aa48,000,01,0,1,1,0
159,159,0,5,2eb6,3d9f6eb4,aa48,000,01,0,1,1,0
160,160,0,5,2cbd,3d9f6eba,aa48,000,01,0,1,1,0
161,161,0,5,b113,3d9f7281,aa48,000,01,0,1,1,0
162,162,0,5,402e,3da136d9,aa48,000,01,0,0,1,0
163,163,0,5,402e,3da1374f,aa48,000,01,0,0,1,0
164,164,0,5,402e,3da13f7f,aa48,000,01,0,0,1,0
165,165,0,5,402e,3da1404e,aa48,000,01,0,0,1,0
166,166,0,5,402e,3da3680c,aa48,000,01,0,0,1,0
167,167,0,5,402e,3da36951,aa48,000,01,0,0,1,0
168,168,0,5,402e,3da37068,aa48,000,01,0,0,1,0
169,169,0,5,402e,3da3706f,aa48,000,01,0,0,1,0
170,170,0,5,402e,3da50290,aa48,000,01,0,0,1,0
171,171,0,5,402e,3da50294,aa48,000,01,0,0,1,0
172,172,0,5,402e,3da50b8b,aa48,000,01,0,0,1,0
173,173,0,5,402e,3da50ba6,aa48,000,01,0,0,1,0
174,174,0,5,402e,3da73898,aa48,000,01,0,0,1,0
175,175,0,5,402e,3da738ca,aa48,000,01,0,0,1,0
176,176,0,5,402e,3da738ed,aa48,000,01,0,0,1,0
177,177,0,5,402e,3da73aaf,aa48,000,01,0,0,1,0
178,178,0,5,402e,3daa13d3,aa48,000,01,0,0,1,0
179,179,0,5,402e,3daa1464,aa48,000,01,0,0,1,0
180,180,0,5,3e44,3daa1ddc,aa48,000,01,0,1,1,0
181,181,0,5,b17f,3daa1e2e,aa48,000,01,0,1,1,0
182,182,0,5,aa4f,3dac3676,aa48,000,01,0,1,1,0
183,183,0,5,ad71,3dac37b8,aa48,000,01,0,1,1,0
184,184,0,5,3cca,3dac38fe,aa48,000,01,0,1,1,0
185,185,0,5,ad96,3dac39d5,aa48,000,01,0,1,1,0
186,186,0,5,24f3,3dae29f5,aa48,000,01,0,1,1,0
187,187,0,5,b09d,3dae2ab5,aa48,000,01,0,1,1,0
188,188,0,5,3e95,3dae2d9a,aa48,000,01,0,1,1,0
189,189,0,5,af38,3dae308c,aa48,000,01,0,1,1,0
190,190,0,5,20d8,3db05f94,aa48,000,01,0,1,1,0
191,191,0,5,ab78,3db060fc,aa48,000,01,0,1,1,0
192,192,0,5,3c5d,3db061b0,aa48,000,01,0,1,1,0
193,193,0,5,b052,3db064e8,aa48,000,01,0,1,1,0
194,194,0,5,a528,3db064e8,aa48,000,01,0,1,1,0
195,195,0,5,ae0d,3db064e8,aa48,000,01,0,1,1,0
196,196,0,5,3e44,3db064e8,aa48,000,01,0,1,1,0
197,197,0,5,ae72,3db064e8,aa48,000,01,0,1,1,0
198,198,0,5,2c91,3db064e8,aa48,000,01,0,1,1,0
199,199,0,5,b1c4,3db064e8,aa48,000,01,0,1,1,0
200,200,0,5,3da7,3db064e8,aa48,000,01,0,1,1,0
201,201,0,5,af76,3db064e8,aa48,000,01,0,1,1,0
202,202,0,5,ae4a,3db064e8,aa48,000,01,0,1,1,0
203,203,0,5,aeb9,3db064e8,aa48,000,01,0,1,1,0
204,204,0,5,3d40,3db064e8,aa48,000,01,0,1,1,0
205,205,0,5,b0f4,3db064e8,aa48,000,01,0,1,1,0
206,206,0,5,3074,3db064e8,aa48,000,01,0,1,1,0
207,207,0,5,b280,3db064e8,aa48,000,01,0,1,1,0
208,208,0,5,3e57,3db064e8,aa48,000,01,0,1,1,0
209,209,0,5,ab46,3db064e8,aa48,000,01,0,1,1,0
210,210,0,5,2106,3db064e8,aa48,000,01,0,1,1,0
211,211,0,5,af0e,3db064e8,aa48,000,01,0,1,1,0
212,212,0,5,3ddf,3db19ef8,aa48,000,01,0,1,1,0
213,213,0,5,aa62,3db1a2bf,aa48,000,01,0,1,1,0
214,214,0,5,ab46,3db1a30f,aa48,000,01,0,1,1,0
215,215,0,5,af6e,3db1a3fc,aa48,000,01,0,1,1,0
216,216,0,5,36fd,3db25b77,aa48,000,01,0,1,1,0
217,217,0,5,ae64,3db25c70,aa48,000,01,0,1,1,0
218,218,0,5,2dc7,3db25c7d,aa48,000,01,0,1,1,0
219,219,0,5,9f92,3db25f26,aa48,000,01,0,1,1,0
220,220,0,5,3ecb,3db3b9bb,aa48,000,01,0,1,1,0
221,221,0,5,aca4,3db3bb5c,aa48,000,01,0,1,1,0
222,222,0,5,a4ff,3db3bb5f,aa48,000,01,0,1,1,0
223,223,0,5,a8bc,3db3bbcf,aa48,000,01,0,1,1,0
224,224,0,5,3dd8,3db4541d,aa48,000,01,0,1,1,0
225,225,0,5,aae9,3db45672,aa48,000,01,0,1,1,0
226,226,0,5,ad10,3db45680,aa48,000,01,0,1,1,0
227,227,0,5,ae99,3db457a4,aa48,000,01,0,1,1,0
228,228,0,5,3e2f,3db591b5,aa48,000,01,0,1,1,0
229,229,0,5,a72c,3db59301,aa48,000,01,0,1,1,0
230,230,0,5,2456,3db593a8,aa48,000,01,0,1,1,0
231,231,0,5,b2ae,3db597d0,aa48,000,01,0,1,1,0
232,232,0,5,3e61,3db69767,aa48,000,01,0,1,1,0
233,233,0,5,ad80,3db69925,aa48,000,01,0,1,1,0
234,234,0,5,2908,3db69a61,aa48,000,01,0,1,1,0
235,235,0,5,a74c,3db69bcb,aa48,000,01,0,1,1,0
236,236,0,5,3e63,3db7784b,aa48,000,01,0,1,1,0
237,237,0,5,b02c,3db77b5c,aa48,000,01,0,1,1,0
238,238,0,5,acc5,3db77dd6,aa48,000,01,0,1,1,0
239,239,0,5,b265,3db7831e,aa48,000,01,0,1,1,0
240,240,0,5,3db6,3db8c4ab,aa48,000,01,0,1,1,0
241,241,0,5,ab45,3db8c515,aa48,000,01,0,1,1,0
242,242,0,5,26ad,3db8c518,aa48,000,01,0,1,1,0
243,243,0,5,a9e8,3db8c6a6,aa48,000,01,0,1,1,0
244,244,0,5,3ee3,3db9da68,aa48,000,01,0,1,1,0
245,245,0,5,af72,3db9daba,aa48,000,01,0,1,1,0
246,246,0,5,2487,3db9db23,aa48,000,01,0,1,1,0
247,247,0,5,b2a2,3db9dcdd,aa48,000,01,0,1,1,0
248,248,0,5,3e08,3db9f548,aa48,000,01,0,1,1,0
249,249,0,5,b0c9,3db9f68f,aa48,000,01,0,1,1,0
250,250,0,5,acc6,3db9f79a,aa48,000,01,0,1,1,0
251,251,0,5,b241,3db9f79b,aa48,000,01,0,1,1,0
252,252,0,5,3f31,3dbb68c3,aa48,000,01,0,1,1,0
253,253,0,5,b044,3dbb6970,aa48,000,01,0,1,1,0
254,254,0,5,9d85,3dbb697c,aa48,000,01,0,1,1,0
255,255,0,5,aa16,3dbb69a9,aa48,000,01,0,1,1,0
256,256,0,5,3c90,3dbc7adb,aa48,000,01,0,1,1,0
257,257,0,5,acbd,3dbc7b3a,aa48,000,01,0,1,1,0
258,258,0,5,ac0b,3dbc7c07,aa48,000,01,0,1,1,0
259,259,0,5,af56,3dbc7d64,aa48,000,01,0,1,1,0
260,260,0,5,3eb5,3dbdaf49,aa48,000,01,0,1,1,0
261,261,0,5,ae7b,3dbdaf62,aa48,000,01,0,1,1,0
262,262,0,5,29d3,3dbdaf6c,aa48,000,01,0,1,1,0
263,263,0,5,b04f,3dbdb500,aa48,000,01,0,1,1,0
264,264,0,5,3c77,3dbefa86,aa48,000,01,0,1,1,0
265,265,0,5,aa60,3dbefb78,aa48,000,01,0,1,1,0
266,266,0,5,a795,3dbefbaa,aa48,000,01,0,1,1,0
267,267,0,5,af5e,3dbefbc5,aa48,000,01,0,1,1,0
268,268,0,5,3cad,3dc04217,aa48,000,01,0,1,1,0
269,269,0,5,9982,3dc04444,aa48,000,01,0,1,1,0
270,270,0,5,ae9b,3dc044fa,aa48,000,01,0,1,1,0
271,271,0,5,ad6c,3dc04a17,aa48,000,01,0,1,1,0
272,272,0,5,3da7,3dc14f02,aa48,000,01,0,1,1,0
273,273,0,5,aee2,3dc14f6b,aa48,000,01,0,1,1,0
274,274,0,5,a8cd,3dc14f82,aa48,000,01,0,1,1,0
275,275,0,5,accc,3dc14fc7,aa48,000,01,0,1,1,0
276,276,0,5,3f5e,3dc2cb32,aa48,000,01,0,1,1,0
277,277,0,5,b13e,3dc2cced,aa48,000,01,0,1,1,0
278,278,0,5,2a83,3dc2ccf7,aa48,000,01,0,1,1,0
279,279,0,5,aa9e,3dc2d277,aa48,000,01,0,1,1,0
280,280,0,5,422e,3dc3f579,aa48,000,01,0,1,1,0
281,281,0,5,9443,3dc3f856,aa48,000,01,0,1,1,0
282,282,0,5,af4f,3dc3f90c,aa48,000,01,0,1,1,0
283,283,0,5,b0f4,3dc3fdf0,aa48,000,01,0,1,1,0
284,284,0,5,3d7b,3dc59bab,aa48,000,01,0,1,1,0
285,285,0,5,b230,3dc59df1,aa48,000,01,0,1,1,0
286,286,0,5,a56c,3dc59df2,aa48,000,01,0,1,1,0
287,287,0,5,b357,3dc59e3c,aa48,000,01,0,1,1,0
288,288,0,5,3dcc,3dc644c4,aa48,000,01,0,1,1,0
289,289,0,5,ae7c,3dc64578,aa48,000,01,0,1,1,0
290,290,0,5,2f9f,3dc645fa,aa48,000,01,0,1,1,0
291,291,0,5,b2a7,3dc647a9,aa48,000,01,0,1,1,0
292,292,0,5,3d6d,3dc7af89,aa48,000,01,0,1,1,0
293,293,0,5,ad95,3dc7b0d9,aa48,000,01,0,1,1,0
294,294,0,5,2836,3dc7b11d,aa48,000,01,0,1,1,0
295,295,0,5,aff0,3dc7b36f,aa48,000,01,0,1,1,0
296,296,0,5,3e00,3dc852e9,aa48,000,01,0,1,1,0
297,297,0,5,b061,3dc8533a,aa48,000,01,0,1,1,0
298,298,0,5,2b64,3dc85357,aa48,000,01,0,1,1,0
299,299,0,5,ae2b,3dc85509,aa48,000,01,0,1,1,0
300,300,0,5,3de2,3dc903f1,aa48,000,01,0,1,1,0
301,301,0,5,ad79,3dc903f1,aa48,000,01,0,1,1,0
302,302,0,5,ac1e,3dc9054e,aa48,000,01,0,1,1,0
303,303,0,5,b00a,3dc90639,aa48,000,01,0,1,1,0
304,304,0,5,3df2,3dca05d1,aa48,000,01,0,1,1,0
305,305,0,5,a808,3dca074c,aa48,000,01,0,1,1,0
306,306,0,5,a803,3dca077a,aa48,000,01,0,1,1,0
307,307,0,5,1791,3dca0832,aa48,000,01,0,1,1,0
308,308,0,5,322f,3dcbba66,aa48,000,01,0,1,1,0
309,309,0,5,a808,3dcbbdd5,aa48,000,01,0,0,1,0
310,310,0,5,a808,3dcbbe2a,aa48,000,01,0,0,1,0
311,311,0,5,a808,3dcbbe82,aa48,000,01,0,0,1,0
312,312,0,5,a808,3dd0848a,aa48,000,01,0,0,1,0
313,313,0,5,a808,3dd0848a,aa48,000,01,0,0,1,0
314,314,0,5,a808,3dd08636,aa48,000,01,0,0,1,0
315,315,0,5,a808,3dd08947,aa48,000,01,0,0,1,0
316,316,0,5,a808,3dd1798f,aa48,000,01,0,0,1,0
317,317,0,5,a808,3dd17e59,aa48,000,01,0,0,1,0
318,318,0,5,a808,3dd17e67,aa48,000,01,0,0,1,0
319,319,0,5,a808,3dd18523,aa48,000,01,0,0,1,0
320,320,0,5,a808,3dd291f8,aa48,000,01,0,0,1,0
321,321,0,5,a808,3dd29348,aa48,000,01,0,0,1,0
322,322,0,5,a808,3dd29519,aa48,000,01,0,0,1,0
323,323,0,5,a808,3dd29aa1,aa48,000,01,0,0,1,0
324,324,0,5,a808,3dd38624,aa48,000,01,0,0,1,0
325,325,0,5,a808,3dd3871d,aa48,000,01,0,0,1,0
326,326,0,5,a808,3dd38741,aa48,000,01,0,0,1,0
327,327,0,5,2cc7,3dd38939,aa48,000,01,0,1,1,0
328,328,0,5,aa05,3dd4a939,aa48,000,01,0,1,1,0
329,329,0,5,2b46,3dd4ab9e,aa48,000,01,0,1,1,0
330,330,0,5,2bf8,3dd4ac0c,aa48,000,01,0,1,1,0
331,331,0,5,2715,3dd4ad3c,aa48,000,01,0,1,1,0
332,332,0,5,a9f2,3dd5c218,aa48,000,01,0,1,1,0
333,333,0,5,32e8,3dd5c308,aa48,000,01,0,1,1,0
334,334,0,5,2e6b,3dd5c38f,aa48,000,01,0,1,1,0
335,335,0,5,271a,3dd5c599,aa48,000,01,0,1,1,0
336,336,0,5,ac73,3dd6e060,aa48,000,01,0,1,1,0
337,337,0,5,22e7,3dd6e080,aa48,000,01,0,1,1,0
338,338,0,5,b463,3dd6e0a0,aa48,000,01,0,1,1,0
339,339,0,5,aa55,3dd6e0a0,aa48,000,01,0,1,1,0
340,340,0,5,aac0,3dd6e568,aa48,000,01,0,1,1,0
341,341,0,5,aade,3dd6e568,aa48,000,01,0,1,1,0
342,342,0,5,281e,3dd6e568,aa48,000,01,0,1,1,0
343,343,0,5,a982,3dd6e568,aa48,000,01,0,1,1,0
344,344,0,5,9ef1,3dd6e568,aa48,000,01,0,1,1,0
345,345,0,5,9f6f,3dd6e568,aa48,000,01,0,1,1,0
346,346,0,5,2cf0,3dd6e568,aa48,000,01,0,1,1,0
347,347,0,5,293b,3dd6e568,aa48,000,01,0,1,1,0
348,348,0,5,ac6a,3dd6e568,aa48,000,01,0,1,1,0
349,349,0,5,a47a,3dd6e568,aa48,000,01,0,1,1,0
350,350,0,5,2da7,3dd6e568,aa48,000,01,0,1,1,0
351,351,0,5,317e,3dd6e568,aa48,000,01,0,1,1,0
352,352,0,5,a26f,3dd6e568,aa48,000,01,0,1,1,0
353,353,0,5,2e8b,3dd6e568,aa48,000,01,0,1,1,0
354,354,0,5,b3d0,3dd6e568,aa48,000,01,0,1,1,0
355,355,0,5,2c12,3dd6e568,aa48,000,01,0,1,1,0
356,356,0,5,298f,3dd6e568,aa48,000,01,0,1,1,0
357,357,0,5,aa00,3dd6e568,aa48,000,01,0,1,1,0
358,358,0,5,a973,3dd6e568,aa48,000,01,0,1,1,0
359,359,0,5,2373,3dd6e61f,aa48,000,01,0,1,1,0
360,360,0,5,ab83,3dd6e667,aa48,000,01,0,1,1,0
361,361,0,5,2aef,3dd6e6d1,aa48,000,01,0,1,1,0
362,362,0,5,2932,3dd6e750,aa48,000,01,0,1,1,0
363,363,0,5,2931,3dd6e769,aa48,000,01,0,1,1,0
364,364,0,5,a58c,3dd6e7b0,aa48,000,01,0,1,1,0
365,365,0,5,287d,3dd6eda6,aa48,000,01,0,1,1,0
366,366,0,5,2b36,3dd6eeef,aa48,000,01,0,1,1,0
367,367,0,5,aba4,3dd6ef09,aa48,000,01,0,1,1,0
368,368,0,5,b0b9,3dd6efa7,aa48,000,01,0,1,1,0
369,369,0,5,2ff9,3dd6efad,aa48,000,01,0,1,1,0
370,370,0,5,2ac1,3dd6f94c,aa48,000,01,0,1,1,0
371,371,0,5,226b,3dd6f99c,aa48,000,01,0,1,1,0
372,372,0,5,a7c5,3dd6f9f7,aa48,000,01,0,1,1,0
373,373,0,5,360b,3dd6fa56,aa48,000,01,0,1,1,0
374,374,0,5,a1a0,3dd6fa78,aa48,000,01,0,1,1,0
375,375,0,5,28b2,3dd6fab4,aa48,000,01,0,1,1,0
376,376,0,5,2b63,3dd6fab6,aa48,000,01,0,1,1,0
377,377,0,5,2c2c,3dd6fab8,aa48,000,01,0,1,1,0
378,378,0,5,2fb9,3dd6fb7b,aa48,000,01,0,1,1,0
379,379,0,5,a722,3dd6fbb1,aa48,000,01,0,1,1,0
380,380,0,5,adf2,3dd6fc4d,aa48,000,01,0,1,1,0
381,381,0,5,2efe,3dd6fc57,aa48,000,01,0,1,1,0
382,382,0,5,30ba,3dd6fd57,aa48,000,01,0,1,1,0
383,383,0,5,a9fb,3dd7011c,aa48,000,01,0,1,1,0
384,384,0,5,2499,3dd70121,aa48,000,01,0,1,1,0
385,385,0,5,a6ba,3dd70278,aa48,000,01,0,1,1,0
386,386,0,5,2dfa,3dd70a19,aa48,000,01,0,1,1,0
387,387,0,5,3274,3dd70a9d,aa48,000,01,0,1,1,0
388,388,0,5,ac53,3dd70adb,aa48,000,01,0,1,1,0
389,389,0,5,2041,3dd70b23,aa48,000,01,0,1,1,0
390,390,0,5,2b67,3dd70b5f,aa48,000,01,0,1,1,0
391,391,0,5,ac9f,3dd70b65,aa48,000,01,0,1,1,0
392,392,0,5,2b46,3dd70bd6,aa48,000,01,0,1,1,0
393,393,0,5,3054,3dd70c36,aa48,000,01,0,1,1,0
394,394,0,5,9ad8,3dd70c6c,aa48,000,01,0,1,1,0
395,395,0,5,252e,3dd70ca2,aa48,000,01,0,1,1,0
396,396,0,5,1551,3dd70cb2,aa48,000,01,0,1,1,0
397,397,0,5,ae9e,3dd70cda,aa48,000,01,0,1,1,0
398,398,0,5,2c7c,3dd70d42,aa48,000,01,0,1,1,0
399,399,0,5,8de4,3dd70db7,aa48,000,01,0,1,1,0
400,400,0,5,ae35,3dd71080,aa48,000,01,0,1,1,0
401,401,0,5,b00a,3dd7127d,aa48,000,01,0,1,1,0
402,402,0,5,3471,3dd712d8,aa48,000,01,0,1,1,0
403,403,0,5,2993,3dd712dd,aa48,000,01,0,1,1,0
404,404,0,5,ad5d,3dd712fc,aa48,000,01,0,1,1,0
405,405,0,5,28f0,3dd7253e,aa48,000,01,0,1,1,0
406,406,0,5,b34b,3dd72542,aa48,000,01,0,1,1,0
407,407,0,5,ac57,3dd7256e,aa48,000,01,0,1,1,0
408,408,0,5,ac89,3dd725db,aa48,000,01,0,1,1,0
409,409,0,5,2a9f,3dd72666,aa48,000,01,0,1,1,0
410,410,0,5,2806,3dd72843,aa48,000,01,0,1,1,0
411,411,0,5,2cfb,3dd7285d,aa48,000,01,0,1,1,0
412,412,0,5,aa91,3dd72978,aa48,000,01,0,1,1,0
413,413,0,5,2da9,3dd72aff,aa48,000,01,0,1,1,0
414,414,0,5,294d,3dd72dca,aa48,000,01,0,1,1,0
415,415,0,5,2ea7,3dd72e11,aa48,000,01,0,1,1,0
416,416,0,5,ab6c,3dd72e1c,aa48,000,01,0,1,1,0
417,417,0,5,2968,3dd72e32,aa48,000,01,0,1,1,0
418,418,0,5,2db9,3dd72f50,aa48,000,01,0,1,1,0
419,419,0,5,ab7d,3dd73485,aa48,000,01,0,1,1,0
420,420,0,5,b066,3dd7351a,aa48,000,01,0,1,1,0
