Sample in Buffer,Sample in Window,TRIGGER,top_i/DataPath_xN_0/U0/coreArea_2_core/ln/rmsNorm/rsqrtIn_payload[31:0],top_i/DataPath_xN_0/U0/coreArea_2_core/ln/rmsNorm/io_normOut_payload[15:0],top_i/DataPath_xN_0/U0/coreArea_2_core/ln/rmsNorm/io_toBeNorm_payload[15:0],top_i/DataPath_xN_0/U0/coreArea_2_core/stateGen_4/status_token[9:0],top_i/DataPath_xN_0/U0/coreArea_2_core/stateGen_4/status_layerCnt[4:0],top_i/DataPath_xN_0/U0/coreArea_2_core/axi/int_bus_payload_tuser[5:0],top_i/DataPath_xN_0/U0/coreArea_2_core/ln/rmsNorm/io_normOut_valid,top_i/DataPath_xN_0/U0/coreArea_2_core/ln/rmsNorm/io_toBeNorm_valid,top_i/DataPath_xN_0/U0/coreArea_2_core/ln/rmsNorm/isAttnLn,top_i/DataPath_xN_0/U0/coreArea_2_core/ln/rmsNorm/rsqrtIn_valid
Radix - UNSIGNED,UNSIGNED,UNSIGNED,HEX,HEX,HEX,HEX,HEX,UNSIGNED,HEX,HEX,HEX,HEX
0,0,0,3abf57a3,9c4a,1dbc,000,00,11,0,1,0,0
1,1,0,3abf57a3,9c4a,a40e,000,00,11,0,0,0,0
2,2,0,3abf57a3,9c4a,a40e,000,00,11,0,0,0,0
3,3,0,3abf57a3,9c4a,a40e,000,00,11,0,0,0,0
4,4,0,3abf57a3,9c4a,a40e,000,00,11,0,0,0,0
5,5,0,3abf57a3,9c4a,a40e,000,00,11,0,0,0,0
6,6,0,3abf57a3,9c4a,a40e,000,00,11,0,0,0,0
7,7,0,3abf57a3,9c4a,a40e,000,00,11,0,0,0,0
8,8,0,3abf5e4f,9c4a,a3ca,000,00,11,0,1,0,0
9,9,0,3abf5e4f,9c4a,a40e,000,00,11,0,0,0,0
10,10,0,3abf5e4f,9c4a,a40e,000,00,11,0,0,0,0
11,11,0,3abf5e4f,9c4a,a40e,000,00,11,0,0,0,0
12,12,0,3abf5e4f,9c4a,a40e,000,00,11,0,0,0,0
13,13,0,3abf5e4f,9c4a,a40e,000,00,11,0,0,0,0
14,14,0,3abf5e4f,9c4a,a40e,000,00,11,0,0,0,0
15,15,0,3abf5e4f,9c4a,a40e,000,00,11,0,0,0,0
16,16,0,3abf5e55,9c4a,a40e,000,00,11,0,0,0,0
17,17,0,3abf5e55,9c4a,a40e,000,00,11,0,0,0,0
18,18,0,3abf5e55,9c4a,a40e,000,00,11,0,0,0,0
19,19,0,3abf5e55,9c4a,a40e,000,00,11,0,0,0,0
20,20,0,3abf5e55,9c4a,a40e,000,00,11,0,0,0,0
21,21,0,3abf5e55,9c4a,a40e,000,00,11,0,0,0,0
22,22,0,3abf5e55,9c4a,a40e,000,00,11,0,0,0,0
23,23,0,3abf5e55,9c4a,a40e,000,00,11,0,0,0,0
24,24,0,3abf5fb8,9c4a,a40e,000,00,11,0,0,0,0
25,25,0,3abf5fb8,9c4a,a40e,000,00,11,0,0,0,0
26,26,0,3abf5fb8,9c4a,a40e,000,00,11,0,0,0,0
27,27,0,3abf5fb8,9c4a,a40e,000,00,11,0,0,0,0
28,28,0,3abf5fb8,9c4a,a40e,000,00,11,0,0,0,0
29,29,0,3abf5fb8,9c4a,a40e,000,00,11,0,0,0,0
30,30,0,3abf5fb8,9c4a,a40e,000,00,11,0,0,0,0
31,31,0,3abf5fb8,9c4a,a40e,000,00,11,0,0,0,0
32,32,0,3abf5ffa,9c4a,a40e,000,00,11,0,0,0,0
33,33,0,3abf5ffa,9c4a,a40e,000,00,11,0,0,0,0
34,34,0,3abf5ffa,9c4a,a40e,000,00,11,0,0,0,0
35,35,0,3abf5ffa,9c4a,a40e,000,00,11,0,0,0,0
36,36,0,3abf5ffa,9c4a,a40e,000,00,11,0,0,0,0
37,37,0,3abf5ffa,9c4a,a40e,000,00,11,0,0,0,0
38,38,0,3abf5ffa,9c4a,a40e,000,00,11,0,0,0,0
39,39,0,3abf5ffa,9c4a,9f47,000,00,11,0,0,0,0
40,40,0,3abf61df,9c4a,25c3,000,00,11,0,0,0,0
41,41,0,3abf61df,9c4a,a0cc,000,00,11,0,0,0,0
42,42,0,3abf61df,9c4a,14a0,000,00,11,0,0,0,0
43,43,0,3abf61df,9c4a,14a0,000,00,11,0,0,0,0
44,44,0,3abf61df,9c4a,14a0,000,00,11,0,0,0,0
45,45,0,3abf61df,9c4a,14a0,000,00,11,0,0,0,0
46,46,0,3abf61df,9c4a,14a0,000,00,11,0,0,0,0
47,47,0,3abf61df,9c4a,14a0,000,00,11,0,0,0,0
48,48,0,3abf61df,9c4a,14a0,000,00,11,0,0,0,0
49,49,0,3abf61df,9c4a,14a0,000,00,11,0,0,0,0
50,50,0,3abf61df,9c4a,a4fc,000,00,11,0,0,0,0
51,51,0,3abf61df,9c4a,21d4,000,00,11,0,0,0,0
52,52,0,3abf61df,9c4a,a771,000,00,11,0,0,0,0
53,53,0,3abf61df,9c4a,28aa,000,00,11,0,0,0,0
54,54,0,3abf61df,9c4a,a08d,000,00,11,0,0,0,0
55,55,0,3abf61df,9c4a,28bf,000,00,11,0,0,0,0
56,56,0,3abf61df,9c4a,a95f,000,00,11,0,0,0,0
57,57,0,3abf61df,9c4a,a63a,000,00,11,0,0,0,0
58,58,0,3abf61df,9c4a,2867,000,00,11,0,0,0,0
59,59,0,3abf61df,9c4a,a7df,000,00,11,0,0,0,0
60,60,0,3abf61df,9c4a,21fa,000,00,11,0,0,0,0
61,61,0,3abf61df,9c4a,24e1,000,00,11,0,0,0,0
62,62,0,3abf61df,9c4a,a226,000,00,11,0,0,0,0
63,63,0,3abf61df,9c4a,25ec,000,00,11,0,0,0,0
64,64,0,3abf61df,9c4a,27fc,000,00,11,0,0,0,0
65,65,0,3abf61df,9c4a,a317,000,00,11,0,0,0,0
66,66,0,3abf61df,9c4a,a2e1,000,00,11,0,1,0,0
67,67,0,3abf61df,9c4a,9c6a,000,00,11,0,0,0,0
68,68,0,3abf61df,9c4a,9ea1,000,00,11,0,0,0,0
69,69,0,3abf61df,9c4a,9b21,000,00,11,0,0,0,0
70,70,0,3abf61df,9c4a,210d,000,00,11,0,1,0,0
71,71,0,3abf61df,9c4a,255a,000,00,11,0,0,0,0
72,72,0,3abf61df,9c4a,1c05,000,00,11,0,0,0,0
73,73,0,3abf61df,9c4a,289e,000,00,11,0,0,0,0
74,74,0,3abf61df,9c4a,1d50,000,00,11,0,1,0,0
75,75,0,3abf61df,9c4a,a8c0,000,00,11,0,0,0,0
76,76,0,3abf61df,9c4a,2544,000,00,11,0,0,0,0
77,77,0,3abf61df,9c4a,08ed,000,00,11,0,0,0,0
78,78,0,3abf61df,9c4a,a228,000,00,11,0,1,0,0
79,79,0,3abf61df,9c4a,1931,000,00,11,0,0,0,0
80,80,0,3abf61df,9c4a,a2f6,000,00,11,0,0,0,0
81,81,0,3abf61df,9c4a,9dea,000,00,11,0,0,0,0
82,82,0,3abf61df,9c4a,1f7a,000,00,11,0,1,0,0
83,83,0,3abf61df,9c4a,96ac,000,00,11,0,0,0,0
84,84,0,3abf61df,9c4a,a39e,000,00,11,0,0,0,0
85,85,0,3abf61df,9c4a,98b6,000,00,11,0,0,0,0
86,86,0,3abf61df,9c4a,20d0,000,00,11,0,1,0,0
87,87,0,3abf61df,9c4a,254f,000,00,11,0,0,0,0
88,88,0,3abf61df,9c4a,2435,000,00,11,0,0,0,0
89,89,0,3abf61df,9c4a,a0a5,000,00,11,0,0,0,0
90,90,0,3abf61df,9c4a,29a0,000,00,11,0,1,0,0
91,91,0,3abf61df,9c4a,98a2,000,00,11,0,0,0,0
92,92,0,3abf61df,9c4a,a46c,000,00,11,0,0,0,0
93,93,0,3abf61df,9c4a,a0a5,000,00,11,0,0,0,0
94,94,0,3abf61df,9c4a,ab03,000,00,11,0,1,0,0
95,95,0,3abf61df,9c4a,265c,000,00,11,0,0,0,0
96,96,0,3abf61df,9c4a,a761,000,00,11,0,0,0,0
97,97,0,3abf61df,9c4a,2594,000,00,11,0,0,0,0
98,98,0,3abf635a,9c4a,a8f3,000,00,11,0,1,0,0
99,99,0,3abf635a,9c4a,a4c5,000,00,11,0,0,0,0
100,100,0,3abf635a,9c4a,a4c5,000,00,11,0,0,0,0
101,101,0,3abf635a,9c4a,a4c5,000,00,11,0,0,0,0
102,102,0,3abf6426,9c4a,a4d0,000,00,11,0,1,0,0
103,103,0,3abf6426,9c4a,a4cc,000,00,11,0,0,0,0
104,104,0,3abf6426,9c4a,1c8b,000,00,11,0,0,0,0
105,105,0,3abf6426,9c4a,9892,000,00,11,0,0,0,0
106,106,0,3abf645f,9c4a,9994,000,00,11,0,1,0,0
107,107,0,3abf645f,9c4a,236d,000,00,11,0,0,0,0
108,108,0,3abf645f,9c4a,236d,000,00,11,0,0,0,0
109,109,0,3abf645f,9c4a,236d,000,00,11,0,0,0,0
110,110,0,3abf658e,9c4a,236d,000,00,11,0,0,0,0
111,111,0,3abf658e,9c4a,a2d2,000,00,11,0,1,0,0
112,112,0,3abf658e,9c4a,a0dd,000,00,11,0,0,0,0
113,113,0,3abf658e,9c4a,1fde,000,00,11,0,0,0,0
114,114,0,3abf65fe,9c4a,9f72,000,00,11,0,0,0,0
115,115,0,3abf65fe,9c4a,a303,000,00,11,0,0,0,0
116,116,0,3abf65fe,9c4a,a303,000,00,11,0,0,0,0
117,117,0,3abf65fe,9c4a,a303,000,00,11,0,0,0,0
118,118,0,3abf66b7,9c4a,a303,000,00,11,0,0,0,0
119,119,0,3abf66b7,9c4a,a1c5,000,00,11,0,1,0,0
120,120,0,3abf66b7,9c4a,a41e,000,00,11,0,0,0,0
121,121,0,3abf66b7,9c4a,a61a,000,00,11,0,0,0,0
122,122,0,3abf7689,9c4a,24b7,000,00,11,0,0,0,0
123,123,0,3abf7689,9c4a,8972,000,00,11,0,0,0,0
124,124,0,3abf7689,9c4a,8972,000,00,11,0,0,0,0
125,125,0,3abf7689,9c4a,9f06,000,00,11,0,0,0,0
126,126,0,3abf8f1e,9c4a,a006,000,00,11,0,0,0,0
127,127,0,3abf8f1e,9c4a,a433,000,00,11,0,0,0,0
128,128,0,3abf8f1e,9c4a,a55f,000,00,11,0,1,0,0
129,129,0,3abf8f1e,9c4a,9f06,000,00,11,0,0,0,0
130,130,0,3abf9b5d,9c4a,9f06,000,00,11,0,0,0,0
131,131,0,3abf9b5d,9c4a,9f06,000,00,11,0,0,0,0
132,132,0,3abf9b5d,9c4a,9f06,000,00,11,0,0,0,0
133,133,0,3abf9b5d,9c4a,9f06,000,00,11,0,0,0,0
134,134,0,3abf9e42,9c4a,9f06,000,00,11,0,0,0,0
135,135,0,3abf9e42,9c4a,9f06,000,00,11,0,0,0,0
136,136,0,3abf9e42,9c4a,a40d,000,00,11,0,1,0,0
137,137,0,3abf9e42,9c4a,250e,000,00,11,0,0,0,0
138,138,0,3abf9e52,9c4a,a554,000,00,11,0,0,0,0
139,139,0,3abf9e52,9c4a,a8c8,000,00,11,0,0,0,0
140,140,0,3abf9e52,9c4a,a555,000,00,11,0,0,0,0
141,141,0,3abf9e52,9c4a,a555,000,00,11,0,0,0,0
142,142,0,3abf9e52,9c4a,a527,000,00,11,0,1,0,0
143,143,0,3abf9fc6,9c4a,a0da,000,00,11,0,0,0,0
144,144,0,3abf9fc6,9c4a,2514,000,00,11,0,0,0,0
145,145,0,3abf9fc6,9c4a,1892,000,00,11,0,0,0,0
146,146,0,3abf9fc6,9c4a,2bea,000,00,11,0,0,0,0
147,147,0,3abf9fc6,9c4a,a0da,000,00,11,0,0,0,0
148,148,0,3abf9fc6,9c4a,a0da,000,00,11,0,0,0,0
149,149,0,3abf9fc6,9c4a,a0da,000,00,11,0,0,0,0
150,150,0,3abf9fc6,9c4a,a0da,000,00,11,0,0,0,0
151,151,0,3abfa0d0,9c4a,a0da,000,00,11,0,0,0,0
152,152,0,3abfa0d0,9c4a,a0da,000,00,11,0,0,0,0
153,153,0,3abfa0d0,9c4a,ab26,000,00,11,0,1,0,0
154,154,0,3abfa0d0,9c4a,a8e3,000,00,11,0,0,0,0
155,155,0,3abfa0d0,9c4a,15ce,000,00,11,0,0,0,0
156,156,0,3abfa0d0,9c4a,2736,000,00,11,0,0,0,0
157,157,0,3abfa0d0,9c4a,1f8a,000,00,11,0,0,0,0
158,158,0,3abfa0d0,9c4a,1f8a,000,00,11,0,0,0,0
159,159,0,3abfa0d0,9c4a,1f8a,000,00,11,0,0,0,0
160,160,0,3abfa46b,9c4a,aa1e,000,00,11,0,1,0,0
161,161,0,3abfa46b,9c4a,28f5,000,00,11,0,0,0,0
162,162,0,3abfa46b,9c4a,248a,000,00,11,0,0,0,0
163,163,0,3abfa46b,9c4a,9dd2,000,00,11,0,0,0,0
164,164,0,3abfa46b,9c4a,21ce,000,00,11,0,0,0,0
165,165,0,3abfa46b,9c4a,28f5,000,00,11,0,0,0,0
166,166,0,3abfa46b,9c4a,28f5,000,00,11,0,0,0,0
167,167,0,3abfa46b,9c4a,28f5,000,00,11,0,0,0,0
168,168,0,3abfa679,9c4a,28f5,000,00,11,0,0,0,0
169,169,0,3abfa679,9c4a,28f5,000,00,11,0,0,0,0
170,170,0,3abfa679,9c4a,2841,000,00,11,0,1,0,0
171,171,0,3abfa679,9c4a,a3fa,000,00,11,0,0,0,0
172,172,0,3abfa679,9c4a,939b,000,00,11,0,0,0,0
173,173,0,3abfa679,9c4a,27b2,000,00,11,0,0,0,0
174,174,0,3abfa9ca,9c4a,8e49,000,00,11,0,0,0,0
175,175,0,3abfa9ca,9c4a,8e49,000,00,11,0,0,0,0
176,176,0,3abfa9ca,9c4a,8e49,000,00,11,0,0,0,0
177,177,0,3abfa9ca,9c4a,8e49,000,00,11,0,0,0,0
178,178,0,3abfa9ca,9c4a,2d81,000,00,11,0,1,0,0
179,179,0,3abfa9ca,9c4a,2637,000,00,11,0,0,0,0
180,180,0,3abfa9ca,9c4a,23eb,000,00,11,0,0,0,0
181,181,0,3abfa9ca,9c4a,2446,000,00,11,0,0,0,0
182,182,0,3abfa9ca,9c4a,a750,000,00,11,0,0,0,0
183,183,0,3abfa9ca,9c4a,a750,000,00,11,0,0,0,0
184,184,0,3abfa9ca,9c4a,a750,000,00,11,0,0,0,0
185,185,0,3abfc357,9c4a,a750,000,00,11,0,0,0,0
186,186,0,3abfc357,9c4a,21df,000,00,11,0,0,0,0
187,187,0,3abfc357,9c4a,a147,000,00,11,0,1,0,0
188,188,0,3abfc357,9c4a,946a,000,00,11,0,0,0,0
189,189,0,3abfc357,9c4a,9e5c,000,00,11,0,0,0,0
190,190,0,3abfc357,9c4a,21df,000,00,11,0,0,0,0
191,191,0,3abfc357,9c4a,21df,000,00,11,0,0,0,0
192,192,0,3abfd60d,9c4a,21df,000,00,11,0,0,0,0
193,193,0,3abfd60d,9c4a,21df,000,00,11,0,0,0,0
194,194,0,3abfd60d,9c4a,21df,000,00,11,0,0,0,0
195,195,0,3abfd60d,9c4a,265c,000,00,11,0,1,0,0
196,196,0,3abfd60d,9c4a,a5e0,000,00,11,0,0,0,0
197,197,0,3abfd60d,9c4a,9d26,000,00,11,0,0,0,0
198,198,0,3abfd60d,9c4a,a1d9,000,00,11,0,0,0,0
199,199,0,3abfd60d,9c4a,212a,000,00,11,0,0,0,0
200,200,0,3abfd60d,9c4a,212a,000,00,11,0,0,0,0
201,201,0,3abfd60d,9c4a,212a,000,00,11,0,0,0,0
202,202,0,3abfdf19,9c4a,212a,000,00,11,0,0,0,0
203,203,0,3abfdf19,9c4a,2924,000,00,11,0,1,0,0
204,204,0,3abfdf19,9c4a,204a,000,00,11,0,0,0,0
205,205,0,3abfdf19,9c4a,1a91,000,00,11,0,0,0,0
206,206,0,3abfdf19,9c4a,20f4,000,00,11,0,0,0,0
207,207,0,3abfdf19,9c4a,98a6,000,00,11,0,0,0,0
208,208,0,3abfdf19,9c4a,98a6,000,00,11,0,0,0,0
209,209,0,3abfdf19,9c4a,98a6,000,00,11,0,0,0,0
210,210,0,3ac01baf,9c4a,98a6,000,00,11,0,0,0,0
211,211,0,3ac01baf,9c4a,22f3,000,00,11,0,0,0,0
212,212,0,3ac01baf,9c4a,a528,000,00,11,0,1,0,0
213,213,0,3ac01baf,9c4a,9c7f,000,00,11,0,0,0,0
214,214,0,3ac01baf,9c4a,a32e,000,00,11,0,0,0,0
215,215,0,3ac01baf,9c4a,22f3,000,00,11,0,0,0,0
216,216,0,3ac01baf,9c4a,22f3,000,00,11,0,0,0,0
217,217,0,3ac01baf,9c4a,22f3,000,00,11,0,0,0,0
218,218,0,3ac01baf,9c4a,22f3,000,00,11,0,0,0,0
219,219,0,3ac01c8e,9c4a,1ffe,000,00,11,0,0,0,0
220,220,0,3ac01c8e,9c4a,a14b,000,00,11,0,1,0,0
221,221,0,3ac01c8e,9c4a,1dd5,000,00,11,0,0,0,0
222,222,0,3ac01c8e,9c4a,1f81,000,00,11,0,0,0,0
223,223,0,3ac01c8e,9c4a,1ffe,000,00,11,0,0,0,0
224,224,0,3ac01c8e,9c4a,1ffe,000,00,11,0,0,0,0
225,225,0,3ac01c8e,9c4a,1ffe,000,00,11,0,0,0,0
226,226,0,3ac01c8e,9c4a,1ffe,000,00,11,0,0,0,0
227,227,0,3ac0219c,9c4a,a0c5,000,00,11,0,0,0,0
228,228,0,3ac0219c,9c4a,2b24,000,00,11,0,1,0,0
229,229,0,3ac0219c,9c4a,a136,000,00,11,0,0,0,0
230,230,0,3ac0219c,9c4a,2c40,000,00,11,0,0,0,0
231,231,0,3ac0219c,9c4a,a0c5,000,00,11,0,0,0,0
232,232,0,3ac0219c,9c4a,a0c5,000,00,11,0,0,0,0
233,233,0,3ac0219c,9c4a,a0c5,000,00,11,0,0,0,0
234,234,0,3ac0219c,9c4a,a0c5,000,00,11,0,0,0,0
235,235,0,3ac02ed2,9c4a,1226,000,00,11,0,0,0,0
236,236,0,3ac02ed2,9c4a,9fbc,000,00,11,0,1,0,0
237,237,0,3ac02ed2,9c4a,1c4a,000,00,11,0,0,0,0
238,238,0,3ac02ed2,9c4a,a62f,000,00,11,0,0,0,0
239,239,0,3ac02ed2,9c4a,1226,000,00,11,0,0,0,0
240,240,0,3ac02ed2,9c4a,1226,000,00,11,0,0,0,0
241,241,0,3ac02ed2,9c4a,1226,000,00,11,0,0,0,0
242,242,0,3ac02ed2,9c4a,1226,000,00,11,0,0,0,0
243,243,0,3ac02ed2,9c4a,1ba6,000,00,11,0,0,0,0
244,244,0,3ac03225,9c4a,28a1,000,00,11,0,1,0,0
245,245,0,3ac03225,9c4a,a7cb,000,00,11,0,0,0,0
246,246,0,3ac03225,9c4a,233f,000,00,11,0,0,0,0
247,247,0,3ac03225,9c4a,1ba6,000,00,11,0,0,0,0
248,248,0,3ac03225,9c4a,1ba6,000,00,11,0,0,0,0
249,249,0,3ac03225,9c4a,1ba6,000,00,11,0,0,0,0
250,250,0,3ac03225,9c4a,1ba6,000,00,11,0,0,0,0
251,251,0,3ac03225,9c4a,17dd,000,00,11,0,0,0,0
252,252,0,3ac03305,9c4a,29e9,000,00,11,0,1,0,0
253,253,0,3ac03305,9c4a,a299,000,00,11,0,0,0,0
254,254,0,3ac03305,9c4a,20f0,000,00,11,0,0,0,0
255,255,0,3ac03305,9c4a,17dd,000,00,11,0,0,0,0
256,256,0,3ac03305,9c4a,17dd,000,00,11,0,0,0,0
257,257,0,3ac03305,9c4a,17dd,000,00,11,0,0,0,0
258,258,0,3ac03305,9c4a,17dd,000,00,11,0,0,0,0
259,259,0,3ac03305,9c4a,a23f,000,00,11,0,0,0,0
260,260,0,3ac04c84,9c4a,2832,000,00,11,0,1,0,0
261,261,0,3ac04c84,9c4a,a299,000,00,11,0,0,0,0
262,262,0,3ac04c84,9c4a,a299,000,00,11,0,0,0,0
263,263,0,3ac04c84,9c4a,a299,000,00,11,0,0,0,0
264,264,0,3ac04c84,9c4a,a299,000,00,11,0,0,0,0
265,265,0,3ac04c84,9c4a,a299,000,00,11,0,0,0,0
266,266,0,3ac04c84,9c4a,a299,000,00,11,0,0,0,0
267,267,0,3ac04c84,9c4a,a299,000,00,11,0,0,0,0
268,268,0,3ac04cfb,9c4a,a01a,000,00,11,0,1,0,0
269,269,0,3ac04cfb,9c4a,a299,000,00,11,0,0,0,0
270,270,0,3ac04cfb,9c4a,a299,000,00,11,0,0,0,0
271,271,0,3ac04cfb,9c4a,a299,000,00,11,0,0,0,0
272,272,0,3ac04cfb,9c4a,a299,000,00,11,0,0,0,0
273,273,0,3ac04cfb,9c4a,a299,000,00,11,0,0,0,0
274,274,0,3ac04cfb,9c4a,a299,000,00,11,0,0,0,0
275,275,0,3ac04cfb,9c4a,a299,000,00,11,0,0,0,0
276,276,0,3ac057b2,9c4a,a0d9,000,00,11,0,1,0,0
277,277,0,3ac057b2,9c4a,a299,000,00,11,0,0,0,0
278,278,0,3ac057b2,9c4a,a299,000,00,11,0,0,0,0
279,279,0,3ac057b2,9c4a,a299,000,00,11,0,0,0,0
280,280,0,3ac057b2,9c4a,a299,000,00,11,0,0,0,0
281,281,0,3ac057b2,9c4a,a299,000,00,11,0,0,0,0
282,282,0,3ac057b2,9c4a,a299,000,00,11,0,0,0,0
283,283,0,3ac057b2,9c4a,a299,000,00,11,0,0,0,0
284,284,0,3ac06929,9c4a,a299,000,00,11,0,0,0,0
285,285,0,3ac06929,9c4a,a299,000,00,11,0,0,0,0
286,286,0,3ac06929,9c4a,a299,000,00,11,0,0,0,0
287,287,0,3ac06929,9c4a,a299,000,00,11,0,0,0,0
288,288,0,3ac06929,9c4a,a299,000,00,11,0,0,0,0
289,289,0,3ac06929,9c4a,a299,000,00,11,0,0,0,0
290,290,0,3ac06929,9c4a,a299,000,00,11,0,0,0,0
291,291,0,3ac06929,9c4a,a299,000,00,11,0,0,0,0
292,292,0,3ac071f6,9c4a,a299,000,00,11,0,0,0,0
293,293,0,3ac071f6,9c4a,a299,000,00,11,0,0,0,0
294,294,0,3ac071f6,9c4a,a299,000,00,11,0,0,0,0
295,295,0,3ac071f6,9c4a,a299,000,00,11,0,0,0,0
296,296,0,3ac071f6,9c4a,a299,000,00,11,0,0,0,0
297,297,0,3ac071f6,9c4a,a299,000,00,11,0,0,0,0
298,298,0,3ac071f6,9c4a,a299,000,00,11,0,0,0,0
299,299,0,3ac071f6,9c4a,a299,000,00,11,0,0,0,0
300,300,0,3ac0727d,9c4a,a299,000,00,11,0,0,0,0
301,301,0,3ac0727d,9c4a,a299,000,00,11,0,0,0,0
302,302,0,3ac0727d,9c4a,a299,000,00,11,0,0,0,0
303,303,0,3ac0727d,9c4a,a299,000,00,11,0,0,0,0
304,304,0,3ac0727d,9c4a,a299,000,00,11,0,0,0,0
305,305,0,3ac0727d,9c4a,a299,000,00,11,0,0,0,0
306,306,0,3ac0727d,9c4a,a299,000,00,11,0,0,0,0
307,307,0,3ac0727d,9c4a,0eae,000,00,11,0,0,0,0
308,308,0,3ac07339,9c4a,2738,000,00,11,0,0,0,0
309,309,0,3ac07339,9c4a,9f8c,000,00,11,0,0,0,0
310,310,0,3ac07339,9c4a,1e1e,000,00,11,0,0,0,0
311,311,0,3ac07339,9c4a,1e1e,000,00,11,0,0,0,0
312,312,0,3ac07339,9c4a,1e1e,000,00,11,0,0,0,0
313,313,0,3ac07339,9c4a,1e1e,000,00,11,0,0,0,0
314,314,0,3ac07339,9c4a,1e1e,000,00,11,0,0,0,0
315,315,0,3ac07339,9c4a,1e1e,000,00,11,0,0,0,0
316,316,0,3ac07339,9c4a,1e1e,000,00,11,0,0,0,0
317,317,0,3ac07339,9c4a,1e1e,000,00,11,0,0,0,0
318,318,0,3ac07339,9c4a,a7e2,000,00,11,0,0,0,0
319,319,0,3ac07339,9c4a,2564,000,00,11,0,0,0,0
320,320,0,3ac07339,9c4a,2913,000,00,11,0,0,0,0
321,321,0,3ac07339,9c4a,a4cb,000,00,11,0,0,0,0
322,322,0,3ac07339,9c4a,a89b,000,00,11,0,0,0,0
323,323,0,3ac07339,9c4a,a2aa,000,00,11,0,0,0,0
324,324,0,3ac07339,9c4a,20d2,000,00,11,0,0,0,0
325,325,0,3ac07339,9c4a,a1f4,000,00,11,0,0,0,0
326,326,0,3ac07339,9c4a,1df7,000,00,11,0,0,0,0
327,327,0,3ac07339,9c4a,a6ae,000,00,11,0,0,0,0
328,328,0,3ac07339,9c4a,2922,000,00,11,0,0,0,0
329,329,0,3ac07339,9c4a,a08e,000,00,11,0,0,0,0
330,330,0,3ac07339,9c4a,a6ba,000,00,11,0,0,0,0
331,331,0,3ac07339,9c4a,23ae,000,00,11,0,0,0,0
332,332,0,3ac07339,9c4a,2113,000,00,11,0,0,0,0
333,333,0,3ac07339,9c4a,2272,000,00,11,0,0,0,0
334,334,0,3ac07339,9c4a,a0e4,000,00,11,0,1,0,0
335,335,0,3ac07339,9c4a,a26f,000,00,11,0,0,0,0
336,336,0,3ac07339,9c4a,2277,000,00,11,0,0,0,0
337,337,0,3ac07339,9c4a,a50a,000,00,11,0,0,0,0
338,338,0,3ac07339,9c4a,1e24,000,00,11,0,1,0,0
339,339,0,3ac07339,9c4a,23a8,000,00,11,0,0,0,0
340,340,0,3ac07339,9c4a,16c0,000,00,11,0,0,0,0
341,341,0,3ac07339,9c4a,1f11,000,00,11,0,0,0,0
342,342,0,3ac07339,9c4a,a0d0,000,00,11,0,1,0,0
343,343,0,3ac07339,9c4a,a545,000,00,11,0,0,0,0
344,344,0,3ac07339,9c4a,29d7,000,00,11,0,0,0,0
345,345,0,3ac07339,9c4a,a094,000,00,11,0,0,0,0
346,346,0,3ac07339,9c4a,a56b,000,00,11,0,1,0,0
347,347,0,3ac07339,9c4a,9b92,000,00,11,0,0,0,0
348,348,0,3ac07339,9c4a,a201,000,00,11,0,0,0,0
349,349,0,3ac07339,9c4a,9ac4,000,00,11,0,0,0,0
350,350,0,3ac07339,9c4a,24ad,000,00,11,0,1,0,0
351,351,0,3ac07339,9c4a,2715,000,00,11,0,0,0,0
352,352,0,3ac07339,9c4a,22e8,000,00,11,0,0,0,0
353,353,0,3ac07339,9c4a,25bc,000,00,11,0,0,0,0
354,354,0,3ac07339,9c4a,a40a,000,00,11,0,1,0,0
355,355,0,3ac07339,9c4a,1c98,000,00,11,0,0,0,0
356,356,0,3ac07339,9c4a,213b,000,00,11,0,0,0,0
357,357,0,3ac07339,9c4a,2105,000,00,11,0,0,0,0
358,358,0,3ac07339,9c4a,9e1f,000,00,11,0,1,0,0
359,359,0,3ac07339,9c4a,982f,000,00,11,0,0,0,0
360,360,0,3ac07339,9c4a,a70c,000,00,11,0,0,0,0
361,361,0,3ac07339,9c4a,2105,000,00,11,0,0,0,0
362,362,0,3ac07339,9c4a,2522,000,00,11,0,1,0,0
363,363,0,3ac07339,9c4a,2484,000,00,11,0,0,0,0
364,364,0,3ac07339,9c4a,a208,000,00,11,0,0,0,0
365,365,0,3ac07339,9c4a,2119,000,00,11,0,0,0,0
366,366,0,3ac073f8,9c4a,2460,000,00,11,0,1,0,0
367,367,0,3ac073f8,9c4a,a874,000,00,11,0,0,0,0
368,368,0,3ac073f8,9c4a,a874,000,00,11,0,0,0,0
369,369,0,3ac073f8,9c4a,a874,000,00,11,0,0,0,0
370,370,0,3ac07443,9c4a,2961,000,00,11,0,1,0,0
371,371,0,3ac07443,9c4a,9438,000,00,11,0,0,0,0
372,372,0,3ac07443,9c4a,9d99,000,00,11,0,0,0,0
373,373,0,3ac07443,9c4a,99ae,000,00,11,0,0,0,0
374,374,0,3ac074fd,9c4a,a3e4,000,00,11,0,1,0,0
375,375,0,3ac074fd,9c4a,2076,000,00,11,0,0,0,0
376,376,0,3ac074fd,9c4a,2076,000,00,11,0,0,0,0
377,377,0,3ac074fd,9c4a,2076,000,00,11,0,0,0,0
378,378,0,3ac078a8,9c4a,2076,000,00,11,0,0,0,0
379,379,0,3ac078a8,9c4a,a9fa,000,00,11,0,1,0,0
380,380,0,3ac078a8,9c4a,a2a8,000,00,11,0,0,0,0
381,381,0,3ac078a8,9c4a,19fb,000,00,11,0,0,0,0
382,382,0,3ac07b64,9c4a,97af,000,00,11,0,0,0,0
383,383,0,3ac07b64,9c4a,1786,000,00,11,0,0,0,0
384,384,0,3ac07b64,9c4a,1786,000,00,11,0,0,0,0
385,385,0,3ac07b64,9c4a,1786,000,00,11,0,0,0,0
386,386,0,3ac07d6e,9c4a,1786,000,00,11,0,0,0,0
387,387,0,3ac07d6e,9c4a,1e00,000,00,11,0,1,0,0
388,388,0,3ac07d6e,9c4a,2532,000,00,11,0,0,0,0
389,389,0,3ac07d6e,9c4a,a18a,000,00,11,0,0,0,0
390,390,0,3ac07db9,9c4a,1830,000,00,11,0,0,0,0
391,391,0,3ac07db9,9c4a,a012,000,00,11,0,0,0,0
392,392,0,3ac07db9,9c4a,a012,000,00,11,0,0,0,0
393,393,0,3ac07db9,9c4a,17f0,000,00,11,0,0,0,0
394,394,0,3ac08104,9c4a,2667,000,00,11,0,0,0,0
395,395,0,3ac08104,9c4a,2271,000,00,11,0,0,0,0
396,396,0,3ac08104,9c4a,a4f7,000,00,11,0,1,0,0
397,397,0,3ac08104,9c4a,17f0,000,00,11,0,0,0,0
398,398,0,3ac08368,9c4a,17f0,000,00,11,0,0,0,0
399,399,0,3ac08368,9c4a,17f0,000,00,11,0,0,0,0
400,400,0,3ac08368,9c4a,17f0,000,00,11,0,0,0,0
401,401,0,3ac08368,9c4a,17f0,000,00,11,0,0,0,0
402,402,0,3ac091df,9c4a,17f0,000,00,11,0,0,0,0
403,403,0,3ac091df,9c4a,17f0,000,00,11,0,0,0,0
404,404,0,3ac091df,9c4a,22da,000,00,11,0,1,0,0
405,405,0,3ac091df,9c4a,a8a7,000,00,11,0,0,0,0
406,406,0,3ac093d2,9c4a,a34d,000,00,11,0,0,0,0
407,407,0,3ac093d2,9c4a,93c9,000,00,11,0,0,0,0
408,408,0,3ac093d2,9c4a,a51d,000,00,11,0,0,0,0
409,409,0,3ac093d2,9c4a,a51d,000,00,11,0,0,0,0
410,410,0,3ac093d2,9c4a,24a7,000,00,11,0,1,0,0
411,411,0,3ac0a5ae,9c4a,a25d,000,00,11,0,0,0,0
