Sample in Buffer,Sample in Window,TRIGGER,top_i/DataPath_xN_0/U0/coreArea_2_core/ln/rmsNorm/rsqrtIn_payload[31:0],top_i/DataPath_xN_0/U0/coreArea_2_core/ln/rmsNorm/io_normOut_payload[15:0],top_i/DataPath_xN_0/U0/coreArea_2_core/ln/rmsNorm/io_toBeNorm_payload[15:0],top_i/DataPath_xN_0/U0/coreArea_2_core/stateGen_4/status_token[9:0],top_i/DataPath_xN_0/U0/coreArea_2_core/stateGen_4/status_layerCnt[4:0],top_i/DataPath_xN_0/U0/coreArea_2_core/axi/int_bus_payload_tuser[5:0],top_i/DataPath_xN_0/U0/coreArea_2_core/ln/rmsNorm/io_normOut_valid,top_i/DataPath_xN_0/U0/coreArea_2_core/ln/rmsNorm/io_toBeNorm_valid,top_i/DataPath_xN_0/U0/coreArea_2_core/ln/rmsNorm/isAttnLn,top_i/DataPath_xN_0/U0/coreArea_2_core/ln/rmsNorm/rsqrtIn_valid
Radix - UNSIGNED,UNSIGNED,UNSIGNED,HEX,HEX,HEX,HEX,HEX,UNSIGNED,HEX,HEX,HEX,HEX
0,0,0,3d631aaf,aa48,2cdd,000,01,5,0,1,1,0
1,1,0,3d634f3f,aa48,b641,000,01,5,0,1,1,0
2,2,0,3d637e15,aa48,b731,000,01,5,0,1,1,0
3,3,0,3d63a9df,aa48,b7f0,000,01,5,0,1,1,0
4,4,0,3d63aaac,aa48,adc1,000,01,5,0,1,1,0
5,5,0,3d63de38,aa48,3727,000,01,5,0,1,1,0
6,6,0,3d641427,aa48,b748,000,01,5,0,1,1,0
7,7,0,3d644e5a,aa48,b907,000,01,5,0,1,1,0
8,8,0,3d644e80,aa48,a63b,000,01,5,0,1,1,0
9,9,0,3d647e4e,aa48,b5eb,000,01,5,0,1,1,0
10,10,0,3d64bcff,aa48,b727,000,01,5,0,1,1,0
11,11,0,3d64ffe8,aa48,b907,000,01,5,0,0,1,0
12,12,0,3d6500c5,aa48,b907,000,01,5,0,0,1,0
13,13,0,3d65299c,aa48,b907,000,01,5,0,0,1,0
14,14,0,3d654898,aa48,b907,000,01,5,0,0,1,0
15,15,0,3d65873a,aa48,b907,000,01,5,0,0,1,0
16,16,0,3d6587bf,aa48,b907,000,01,5,0,0,1,0
17,17,0,3d65b3d8,aa48,b907,000,01,5,0,0,1,0
18,18,0,3d65e019,aa48,b907,000,01,5,0,0,1,0
19,19,0,3d660d30,aa48,b907,000,01,5,0,0,1,0
20,20,0,3d660fe3,aa48,b907,000,01,5,0,0,1,0
21,21,0,3d6640b9,aa48,b907,000,01,5,0,0,1,0
22,22,0,3d667953,aa48,b907,000,01,5,0,0,1,0
23,23,0,3d66a7a1,aa48,b907,000,01,5,0,0,1,0
24,24,0,3d66a8e0,aa48,b907,000,01,5,0,0,1,0
25,25,0,3d66d292,aa48,b907,000,01,5,0,0,1,0
26,26,0,3d670108,aa48,b907,000,01,5,0,0,1,0
27,27,0,3d6745df,aa48,b907,000,01,5,0,0,1,0
28,28,0,3d674621,aa48,b907,000,01,5,0,0,1,0
29,29,0,3d67642a,aa48,b907,000,01,5,0,0,1,0
30,30,0,3d67919f,aa48,b907,000,01,5,0,0,1,0
31,31,0,3d67f03b,aa48,b907,000,01,5,0,0,1,0
32,32,0,3d67f1b5,aa48,b907,000,01,5,0,0,1,0
33,33,0,3d6818d1,aa48,296b,000,01,5,0,1,1,0
34,34,0,3d684c89,aa48,400c,000,01,5,0,1,1,0
35,35,0,3d688b8a,aa48,ab5f,000,01,5,0,1,1,0
36,36,0,3d688d9c,aa48,328a,000,01,5,0,1,1,0
37,37,0,3d68c0c3,aa48,1f3a,000,01,5,0,1,1,0
38,38,0,3d68f5c8,aa48,3abf,000,01,5,0,1,1,0
39,39,0,3d695ae1,aa48,aa44,000,01,5,0,1,1,0
40,40,0,3d695b07,aa48,29eb,000,01,5,0,1,1,0
41,41,0,3d697e0d,aa48,2706,000,01,5,0,1,1,0
42,42,0,3d69b135,aa48,3de7,000,01,5,0,1,1,0
43,43,0,3d69b135,aa48,298a,000,01,5,0,1,1,0
44,44,0,3d69b135,aa48,346d,000,01,5,0,1,1,0
45,45,0,3d69b135,aa48,aa05,000,01,5,0,1,1,0
46,46,0,3d69b135,aa48,40f8,000,01,5,0,1,1,0
47,47,0,3d69b135,aa48,aad2,000,01,5,0,1,1,0
48,48,0,3d69b135,aa48,3226,000,01,5,0,1,1,0
49,49,0,3d69b135,aa48,aa08,000,01,5,0,1,1,0
50,50,0,3d69b135,aa48,3f49,000,01,5,0,1,1,0
51,51,0,3d69b135,aa48,aa8f,000,01,5,0,1,1,0
52,52,0,3d69b135,aa48,335b,000,01,5,0,1,1,0
53,53,0,3d69b135,aa48,2dbe,000,01,5,0,1,1,0
54,54,0,3d69b135,aa48,3f9e,000,01,5,0,1,1,0
55,55,0,3d69b135,aa48,ad24,000,01,5,0,1,1,0
56,56,0,3d69b135,aa48,31b3,000,01,5,0,1,1,0
57,57,0,3d69b135,aa48,aabb,000,01,5,0,1,1,0
58,58,0,3d69b135,aa48,4024,000,01,5,0,1,1,0
59,59,0,3d69b135,aa48,ae29,000,01,5,0,1,1,0
60,60,0,3d69b135,aa48,31b4,000,01,5,0,1,1,0
61,61,0,3d69b135,aa48,ac7a,000,01,5,0,1,1,0
62,62,0,3d69b135,aa48,3e3d,000,01,5,0,1,1,0
63,63,0,3d69b135,aa48,af99,000,01,5,0,1,1,0
64,64,0,3d69b135,aa48,300d,000,01,5,0,1,1,0
65,65,0,3d69b1aa,aa48,2958,000,01,5,0,1,1,0
66,66,0,3d6dc9ce,aa48,414f,000,01,5,0,1,1,0
67,67,0,3d6dcaa8,aa48,2e2a,000,01,5,0,1,1,0
68,68,0,3d6dd558,aa48,356c,000,01,5,0,1,1,0
69,69,0,3d6dd55c,aa48,a6a9,000,01,5,0,1,1,0
70,70,0,3d6e8b66,aa48,3fa3,000,01,5,0,1,1,0
71,71,0,3d6e8c03,aa48,2c47,000,01,5,0,1,1,0
72,72,0,3d6e8c8f,aa48,36f1,000,01,5,0,1,1,0
73,73,0,3d6e8cc0,aa48,2c7b,000,01,5,0,1,1,0
74,74,0,3d70ba27,aa48,3ee1,000,01,5,0,1,1,0
75,75,0,3d70baa2,aa48,2b97,000,01,5,0,1,1,0
76,76,0,3d70ce38,aa48,32e7,000,01,5,0,1,1,0
77,77,0,3d70cec9,aa48,25d7,000,01,5,0,1,1,0
78,78,0,3d76fad9,aa48,3f6a,000,01,5,0,1,1,0
79,79,0,3d76fb93,aa48,2f3b,000,01,5,0,1,1,0
80,80,0,3d770507,aa48,3309,000,01,5,0,1,1,0
81,81,0,3d770598,aa48,a83c,000,01,5,0,1,1,0
82,82,0,3d7a56c5,aa48,3fc6,000,01,5,0,1,1,0
83,83,0,3d7a5771,aa48,288e,000,01,5,0,1,1,0
84,84,0,3d7a64f8,aa48,30b2,000,01,5,0,1,1,0
85,85,0,3d7a6707,aa48,2499,000,01,5,0,1,1,0
86,86,0,3d7e0760,aa48,3daf,000,01,5,0,1,1,0
87,87,0,3d7e0907,aa48,2ef7,000,01,5,0,1,1,0
88,88,0,3d7e1125,aa48,301f,000,01,5,0,1,1,0
89,89,0,3d7e11db,aa48,a533,000,01,5,0,1,1,0
90,90,0,3d812d8f,aa48,3f96,000,01,5,0,1,1,0
91,91,0,3d812ebf,aa48,28a7,000,01,5,0,1,1,0
92,92,0,3d8132cf,aa48,b057,000,01,5,0,1,1,0
93,93,0,3d813370,aa48,2da7,000,01,5,0,1,1,0
94,94,0,3d826ac4,aa48,40e0,000,01,5,0,1,1,0
95,95,0,3d826c92,aa48,a8ce,000,01,5,0,1,1,0
96,96,0,3d826e9f,aa48,3263,000,01,5,0,1,1,0
97,97,0,3d826ed8,aa48,ae19,000,01,5,0,1,1,0
98,98,0,3d85f4a4,aa48,3ffd,000,01,5,0,1,1,0
99,99,0,3d85f5d4,aa48,ac15,000,01,5,0,1,1,0
100,100,0,3d860487,aa48,31c0,000,01,5,0,1,1,0
101,101,0,3d86049d,aa48,2b28,000,01,5,0,1,1,0
102,102,0,3d87d72b,aa48,3dfd,000,01,5,0,1,1,0
103,103,0,3d87d7be,aa48,aacd,000,01,5,0,1,1,0
104,104,0,3d87efd5,aa48,330b,000,01,5,0,1,1,0
105,105,0,3d87f076,aa48,ae29,000,01,5,0,1,1,0
106,106,0,3d896b04,aa48,3fa7,000,01,5,0,1,1,0
107,107,0,3d896b77,aa48,9d5a,000,01,5,0,1,1,0
108,108,0,3d89716c,aa48,3145,000,01,5,0,1,1,0
109,109,0,3d89717d,aa48,a500,000,01,5,0,1,1,0
110,110,0,3d8b293c,aa48,3f5b,000,01,5,0,1,1,0
111,111,0,3d8b2ade,aa48,a66a,000,01,5,0,1,1,0
112,112,0,3d8b310e,aa48,3081,000,01,5,0,1,1,0
113,113,0,3d8b3132,aa48,a915,000,01,5,0,1,1,0
114,114,0,3d8d149b,aa48,3fed,000,01,5,0,1,1,0
115,115,0,3d8d14c4,aa48,a6f1,000,01,5,0,1,1,0
116,116,0,3d8d1786,aa48,3550,000,01,5,0,1,1,0
117,117,0,3d8d1790,aa48,ac2e,000,01,5,0,1,1,0
118,118,0,3d8e19fd,aa48,4005,000,01,5,0,1,1,0
119,119,0,3d8e1b81,aa48,a09a,000,01,5,0,1,1,0
120,120,0,3d8e1da1,aa48,3052,000,01,5,0,1,1,0
121,121,0,3d8e1dae,aa48,a56a,000,01,5,0,1,1,0
122,122,0,3d8fea0d,aa48,3574,000,01,5,0,1,1,0
123,123,0,3d8fea39,aa48,a886,000,01,5,0,1,1,0
124,124,0,3d8fec93,aa48,2a17,000,01,5,0,1,1,0
125,125,0,3d8fed93,aa48,a8ee,000,01,5,0,1,1,0
126,126,0,3d92e613,aa48,3f59,000,01,5,0,1,1,0
127,127,0,3d92e641,aa48,29bc,000,01,5,0,1,1,0
128,128,0,3d92eb5a,aa48,22f4,000,01,5,0,1,1,0
129,129,0,3d92ec84,aa48,317f,000,01,5,0,1,1,0
130,130,0,3d94eb04,aa48,3f85,000,01,5,0,1,1,0
131,131,0,3d94eb8a,aa48,abab,000,01,5,0,1,1,0
132,132,0,3d94efac,aa48,340c,000,01,5,0,1,1,0
133,133,0,3d94f012,aa48,2d16,000,01,5,0,1,1,0
134,134,0,3d960ef2,aa48,4027,000,01,5,0,1,1,0
135,135,0,3d960f4f,aa48,ae5f,000,01,5,0,1,1,0
136,136,0,3d961582,aa48,3388,000,01,5,0,1,1,0
137,137,0,3d9616b2,aa48,a3a6,000,01,5,0,1,1,0
138,138,0,3d97eb29,aa48,3f17,000,01,5,0,1,1,0
139,139,0,3d97eb2a,aa48,21cc,000,01,5,0,1,1,0
140,140,0,3d97eea3,aa48,343c,000,01,5,0,1,1,0
141,141,0,3d97eeaf,aa48,2764,000,01,5,0,1,1,0
142,142,0,3d999f82,aa48,402c,000,01,5,0,1,1,0
143,143,0,3d999f96,aa48,28f6,000,01,5,0,1,1,0
144,144,0,3d99a220,aa48,282d,000,01,5,0,1,1,0
145,145,0,3d99a253,aa48,af80,000,01,5,0,1,1,0
146,146,0,3d9b98df,aa48,40c6,000,01,5,0,1,1,0
147,147,0,3d9b98f7,aa48,ac42,000,01,5,0,1,1,0
148,148,0,3d9ba713,aa48,345a,000,01,5,0,1,1,0
149,149,0,3d9ba79f,aa48,aa66,000,01,5,0,1,1,0
150,150,0,3d9daca2,aa48,4018,000,01,5,0,1,1,0
151,151,0,3d9daca5,aa48,ae59,000,01,5,0,1,1,0
152,152,0,3d9daefa,aa48,2e63,000,01,5,0,1,1,0
153,153,0,3d9daf09,aa48,2d2e,000,01,5,0,1,1,0
154,154,0,3d9dbde7,aa48,3fe0,000,01,5,0,1,1,0
155,155,0,3d9dbe10,aa48,2ce7,000,01,5,0,1,1,0
156,156,0,3d9dbe5a,aa48,30d0,000,01,5,0,1,1,0
157,157,0,3d9dbe8b,aa48,30da,000,01,5,0,1,1,0
158,158,0,3d9f6e72,aa48,402e,000,01,5,0,1,1,0
159,159,0,3d9f6eb4,aa48,2eb6,000,01,5,0,1,1,0
160,160,0,3d9f6eba,aa48,2cbd,000,01,5,0,1,1,0
161,161,0,3d9f7281,aa48,b113,000,01,5,0,1,1,0
162,162,0,3da136d9,aa48,402e,000,01,5,0,0,1,0
163,163,0,3da1374f,aa48,402e,000,01,5,0,0,1,0
164,164,0,3da13f7f,aa48,402e,000,01,5,0,0,1,0
165,165,0,3da1404e,aa48,402e,000,01,5,0,0,1,0
166,166,0,3da3680c,aa48,402e,000,01,5,0,0,1,0
167,167,0,3da36951,aa48,402e,000,01,5,0,0,1,0
168,168,0,3da37068,aa48,402e,000,01,5,0,0,1,0
169,169,0,3da3706f,aa48,402e,000,01,5,0,0,1,0
170,170,0,3da50290,aa48,402e,000,01,5,0,0,1,0
171,171,0,3da50294,aa48,402e,000,01,5,0,0,1,0
172,172,0,3da50b8b,aa48,402e,000,01,5,0,0,1,0
173,173,0,3da50ba6,aa48,402e,000,01,5,0,0,1,0
174,174,0,3da73898,aa48,402e,000,01,5,0,0,1,0
175,175,0,3da738ca,aa48,402e,000,01,5,0,0,1,0
176,176,0,3da738ed,aa48,402e,000,01,5,0,0,1,0
177,177,0,3da73aaf,aa48,402e,000,01,5,0,0,1,0
178,178,0,3daa13d3,aa48,402e,000,01,5,0,0,1,0
179,179,0,3daa1464,aa48,402e,000,01,5,0,0,1,0
180,180,0,3daa1ddc,aa48,3e44,000,01,5,0,1,1,0
181,181,0,3daa1e2e,aa48,b17f,000,01,5,0,1,1,0
182,182,0,3dac3676,aa48,aa4f,000,01,5,0,1,1,0
183,183,0,3dac37b8,aa48,ad71,000,01,5,0,1,1,0
184,184,0,3dac38fe,aa48,3cca,000,01,5,0,1,1,0
185,185,0,3dac39d5,aa48,ad96,000,01,5,0,1,1,0
186,186,0,3dae29f5,aa48,24f3,000,01,5,0,1,1,0
187,187,0,3dae2ab5,aa48,b09d,000,01,5,0,1,1,0
188,188,0,3dae2d9a,aa48,3e95,000,01,5,0,1,1,0
189,189,0,3dae308c,aa48,af38,000,01,5,0,1,1,0
190,190,0,3db05f94,aa48,20d8,000,01,5,0,1,1,0
191,191,0,3db060fc,aa48,ab78,000,01,5,0,1,1,0
192,192,0,3db061b0,aa48,3c5d,000,01,5,0,1,1,0
193,193,0,3db064e8,aa48,b052,000,01,5,0,1,1,0
194,194,0,3db064e8,aa48,a528,000,01,5,0,1,1,0
195,195,0,3db064e8,aa48,ae0d,000,01,5,0,1,1,0
196,196,0,3db064e8,aa48,3e44,000,01,5,0,1,1,0
197,197,0,3db064e8,aa48,ae72,000,01,5,0,1,1,0
198,198,0,3db064e8,aa48,2c91,000,01,5,0,1,1,0
199,199,0,3db064e8,aa48,b1c4,000,01,5,0,1,1,0
200,200,0,3db064e8,aa48,3da7,000,01,5,0,1,1,0
201,201,0,3db064e8,aa48,af76,000,01,5,0,1,1,0
202,202,0,3db064e8,aa48,ae4a,000,01,5,0,1,1,0
203,203,0,3db064e8,aa48,aeb9,000,01,5,0,1,1,0
204,204,0,3db064e8,aa48,3d40,000,01,5,0,1,1,0
205,205,0,3db064e8,aa48,b0f4,000,01,5,0,1,1,0
206,206,0,3db064e8,aa48,3074,000,01,5,0,1,1,0
207,207,0,3db064e8,aa48,b280,000,01,5,0,1,1,0
208,208,0,3db064e8,aa48,3e57,000,01,5,0,1,1,0
209,209,0,3db064e8,aa48,ab46,000,01,5,0,1,1,0
210,210,0,3db064e8,aa48,2106,000,01,5,0,1,1,0
211,211,0,3db064e8,aa48,af0e,000,01,5,0,1,1,0
212,212,0,3db19ef8,aa48,3ddf,000,01,5,0,1,1,0
213,213,0,3db1a2bf,aa48,aa62,000,01,5,0,1,1,0
214,214,0,3db1a30f,aa48,ab46,000,01,5,0,1,1,0
215,215,0,3db1a3fc,aa48,af6e,000,01,5,0,1,1,0
216,216,0,3db25b77,aa48,36fd,000,01,5,0,1,1,0
217,217,0,3db25c70,aa48,ae64,000,01,5,0,1,1,0
218,218,0,3db25c7d,aa48,2dc7,000,01,5,0,1,1,0
219,219,0,3db25f26,aa48,9f92,000,01,5,0,1,1,0
220,220,0,3db3b9bb,aa48,3ecb,000,01,5,0,1,1,0
221,221,0,3db3bb5c,aa48,aca4,000,01,5,0,1,1,0
222,222,0,3db3bb5f,aa48,a4ff,000,01,5,0,1,1,0
223,223,0,3db3bbcf,aa48,a8bc,000,01,5,0,1,1,0
224,224,0,3db4541d,aa48,3dd8,000,01,5,0,1,1,0
225,225,0,3db45672,aa48,aae9,000,01,5,0,1,1,0
226,226,0,3db45680,aa48,ad10,000,01,5,0,1,1,0
227,227,0,3db457a4,aa48,ae99,000,01,5,0,1,1,0
228,228,0,3db591b5,aa48,3e2f,000,01,5,0,1,1,0
229,229,0,3db59301,aa48,a72c,000,01,5,0,1,1,0
230,230,0,3db593a8,aa48,2456,000,01,5,0,1,1,0
231,231,0,3db597d0,aa48,b2ae,000,01,5,0,1,1,0
232,232,0,3db69767,aa48,3e61,000,01,5,0,1,1,0
233,233,0,3db69925,aa48,ad80,000,01,5,0,1,1,0
234,234,0,3db69a61,aa48,2908,000,01,5,0,1,1,0
235,235,0,3db69bcb,aa48,a74c,000,01,5,0,1,1,0
236,236,0,3db7784b,aa48,3e63,000,01,5,0,1,1,0
237,237,0,3db77b5c,aa48,b02c,000,01,5,0,1,1,0
238,238,0,3db77dd6,aa48,acc5,000,01,5,0,1,1,0
239,239,0,3db7831e,aa48,b265,000,01,5,0,1,1,0
240,240,0,3db8c4ab,aa48,3db6,000,01,5,0,1,1,0
241,241,0,3db8c515,aa48,ab45,000,01,5,0,1,1,0
242,242,0,3db8c518,aa48,26ad,000,01,5,0,1,1,0
243,243,0,3db8c6a6,aa48,a9e8,000,01,5,0,1,1,0
244,244,0,3db9da68,aa48,3ee3,000,01,5,0,1,1,0
245,245,0,3db9daba,aa48,af72,000,01,5,0,1,1,0
246,246,0,3db9db23,aa48,2487,000,01,5,0,1,1,0
247,247,0,3db9dcdd,aa48,b2a2,000,01,5,0,1,1,0
248,248,0,3db9f548,aa48,3e08,000,01,5,0,1,1,0
249,249,0,3db9f68f,aa48,b0c9,000,01,5,0,1,1,0
250,250,0,3db9f79a,aa48,acc6,000,01,5,0,1,1,0
251,251,0,3db9f79b,aa48,b241,000,01,5,0,1,1,0
252,252,0,3dbb68c3,aa48,3f31,000,01,5,0,1,1,0
253,253,0,3dbb6970,aa48,b044,000,01,5,0,1,1,0
254,254,0,3dbb697c,aa48,9d85,000,01,5,0,1,1,0
255,255,0,3dbb69a9,aa48,aa16,000,01,5,0,1,1,0
256,256,0,3dbc7adb,aa48,3c90,000,01,5,0,1,1,0
257,257,0,3dbc7b3a,aa48,acbd,000,01,5,0,1,1,0
258,258,0,3dbc7c07,aa48,ac0b,000,01,5,0,1,1,0
259,259,0,3dbc7d64,aa48,af56,000,01,5,0,1,1,0
260,260,0,3dbdaf49,aa48,3eb5,000,01,5,0,1,1,0
261,261,0,3dbdaf62,aa48,ae7b,000,01,5,0,1,1,0
262,262,0,3dbdaf6c,aa48,29d3,000,01,5,0,1,1,0
263,263,0,3dbdb500,aa48,b04f,000,01,5,0,1,1,0
264,264,0,3dbefa86,aa48,3c77,000,01,5,0,1,1,0
265,265,0,3dbefb78,aa48,aa60,000,01,5,0,1,1,0
266,266,0,3dbefbaa,aa48,a795,000,01,5,0,1,1,0
267,267,0,3dbefbc5,aa48,af5e,000,01,5,0,1,1,0
268,268,0,3dc04217,aa48,3cad,000,01,5,0,1,1,0
269,269,0,3dc04444,aa48,9982,000,01,5,0,1,1,0
270,270,0,3dc044fa,aa48,ae9b,000,01,5,0,1,1,0
271,271,0,3dc04a17,aa48,ad6c,000,01,5,0,1,1,0
272,272,0,3dc14f02,aa48,3da7,000,01,5,0,1,1,0
273,273,0,3dc14f6b,aa48,aee2,000,01,5,0,1,1,0
274,274,0,3dc14f82,aa48,a8cd,000,01,5,0,1,1,0
275,275,0,3dc14fc7,aa48,accc,000,01,5,0,1,1,0
276,276,0,3dc2cb32,aa48,3f5e,000,01,5,0,1,1,0
277,277,0,3dc2cced,aa48,b13e,000,01,5,0,1,1,0
278,278,0,3dc2ccf7,aa48,2a83,000,01,5,0,1,1,0
279,279,0,3dc2d277,aa48,aa9e,000,01,5,0,1,1,0
280,280,0,3dc3f579,aa48,422e,000,01,5,0,1,1,0
281,281,0,3dc3f856,aa48,9443,000,01,5,0,1,1,0
282,282,0,3dc3f90c,aa48,af4f,000,01,5,0,1,1,0
283,283,0,3dc3fdf0,aa48,b0f4,000,01,5,0,1,1,0
284,284,0,3dc59bab,aa48,3d7b,000,01,5,0,1,1,0
285,285,0,3dc59df1,aa48,b230,000,01,5,0,1,1,0
286,286,0,3dc59df2,aa48,a56c,000,01,5,0,1,1,0
287,287,0,3dc59e3c,aa48,b357,000,01,5,0,1,1,0
288,288,0,3dc644c4,aa48,3dcc,000,01,5,0,1,1,0
289,289,0,3dc64578,aa48,ae7c,000,01,5,0,1,1,0
290,290,0,3dc645fa,aa48,2f9f,000,01,5,0,1,1,0
291,291,0,3dc647a9,aa48,b2a7,000,01,5,0,1,1,0
292,292,0,3dc7af89,aa48,3d6d,000,01,5,0,1,1,0
293,293,0,3dc7b0d9,aa48,ad95,000,01,5,0,1,1,0
294,294,0,3dc7b11d,aa48,2836,000,01,5,0,1,1,0
295,295,0,3dc7b36f,aa48,aff0,000,01,5,0,1,1,0
296,296,0,3dc852e9,aa48,3e00,000,01,5,0,1,1,0
297,297,0,3dc8533a,aa48,b061,000,01,5,0,1,1,0
298,298,0,3dc85357,aa48,2b64,000,01,5,0,1,1,0
299,299,0,3dc85509,aa48,ae2b,000,01,5,0,1,1,0
300,300,0,3dc903f1,aa48,3de2,000,01,5,0,1,1,0
301,301,0,3dc903f1,aa48,ad79,000,01,5,0,1,1,0
302,302,0,3dc9054e,aa48,ac1e,000,01,5,0,1,1,0
303,303,0,3dc90639,aa48,b00a,000,01,5,0,1,1,0
304,304,0,3dca05d1,aa48,3df2,000,01,5,0,1,1,0
305,305,0,3dca074c,aa48,a808,000,01,5,0,1,1,0
306,306,0,3dca077a,aa48,a803,000,01,5,0,1,1,0
307,307,0,3dca0832,aa48,1791,000,01,5,0,1,1,0
308,308,0,3dcbba66,aa48,322f,000,01,5,0,1,1,0
309,309,0,3dcbbdd5,aa48,2cc7,000,01,5,0,1,1,0
310,310,0,3dcbbe2a,aa48,aa05,000,01,5,0,1,1,0
311,311,0,3dcbbe82,aa48,2b46,000,01,5,0,1,1,0
312,312,0,3dd0848a,aa48,2bf8,000,01,5,0,1,1,0
313,313,0,3dd0848a,aa48,2715,000,01,5,0,1,1,0
314,314,0,3dd08636,aa48,a9f2,000,01,5,0,1,1,0
315,315,0,3dd08947,aa48,32e8,000,01,5,0,1,1,0
316,316,0,3dd1798f,aa48,2e6b,000,01,5,0,1,1,0
317,317,0,3dd17e59,aa48,271a,000,01,5,0,1,1,0
318,318,0,3dd17e67,aa48,ac73,000,01,5,0,1,1,0
319,319,0,3dd18523,aa48,22e7,000,01,5,0,1,1,0
320,320,0,3dd291f8,aa48,b463,000,01,5,0,1,1,0
321,321,0,3dd29348,aa48,aa55,000,01,5,0,1,1,0
322,322,0,3dd29519,aa48,aac0,000,01,5,0,1,1,0
323,323,0,3dd29aa1,aa48,aade,000,01,5,0,1,1,0
324,324,0,3dd38624,aa48,281e,000,01,5,0,1,1,0
325,325,0,3dd3871d,aa48,a982,000,01,5,0,1,1,0
326,326,0,3dd38741,aa48,9ef1,000,01,5,0,1,1,0
327,327,0,3dd38939,aa48,9f6f,000,01,5,0,1,1,0
328,328,0,3dd4a939,aa48,2cf0,000,01,5,0,1,1,0
329,329,0,3dd4ab9e,aa48,293b,000,01,5,0,1,1,0
330,330,0,3dd4ac0c,aa48,ac6a,000,01,5,0,1,1,0
331,331,0,3dd4ad3c,aa48,a47a,000,01,5,0,1,1,0
332,332,0,3dd5c218,aa48,2da7,000,01,5,0,1,1,0
333,333,0,3dd5c308,aa48,317e,000,01,5,0,1,1,0
334,334,0,3dd5c38f,aa48,a26f,000,01,5,0,1,1,0
335,335,0,3dd5c599,aa48,2e8b,000,01,5,0,1,1,0
336,336,0,3dd6e060,aa48,b3d0,000,01,5,0,1,1,0
337,337,0,3dd6e080,aa48,2c12,000,01,5,0,1,1,0
338,338,0,3dd6e0a0,aa48,298f,000,01,5,0,1,1,0
339,339,0,3dd6e0a0,aa48,aa00,000,01,5,0,1,1,0
340,340,0,3dd6e568,aa48,a973,000,01,5,0,1,1,0
341,341,0,3dd6e61f,aa48,2373,000,01,5,0,1,1,0
342,342,0,3dd6e667,aa48,ab83,000,01,5,0,1,1,0
343,343,0,3dd6e6d1,aa48,2aef,000,01,5,0,1,1,0
344,344,0,3dd6e750,aa48,2932,000,01,5,0,1,1,0
345,345,0,3dd6e769,aa48,2931,000,01,5,0,1,1,0
346,346,0,3dd6e7b0,aa48,a58c,000,01,5,0,1,1,0
347,347,0,3dd6eda6,aa48,287d,000,01,5,0,1,1,0
348,348,0,3dd6eeef,aa48,2b36,000,01,5,0,1,1,0
349,349,0,3dd6ef09,aa48,aba4,000,01,5,0,1,1,0
350,350,0,3dd6efa7,aa48,b0b9,000,01,5,0,1,1,0
351,351,0,3dd6efad,aa48,2ff9,000,01,5,0,1,1,0
352,352,0,3dd6f94c,aa48,2ac1,000,01,5,0,1,1,0
353,353,0,3dd6f99c,aa48,226b,000,01,5,0,1,1,0
354,354,0,3dd6f9f7,aa48,a7c5,000,01,5,0,1,1,0
355,355,0,3dd6fa56,aa48,360b,000,01,5,0,1,1,0
356,356,0,3dd6fa78,aa48,a1a0,000,01,5,0,1,1,0
357,357,0,3dd6fab4,aa48,28b2,000,01,5,0,1,1,0
358,358,0,3dd6fab6,aa48,2b63,000,01,5,0,1,1,0
359,359,0,3dd6fab8,aa48,2c2c,000,01,5,0,1,1,0
360,360,0,3dd6fb7b,aa48,2fb9,000,01,5,0,1,1,0
361,361,0,3dd6fbb1,aa48,a722,000,01,5,0,1,1,0
362,362,0,3dd6fc4d,aa48,adf2,000,01,5,0,1,1,0
363,363,0,3dd6fc57,aa48,2efe,000,01,5,0,1,1,0
364,364,0,3dd6fd57,aa48,30ba,000,01,5,0,1,1,0
365,365,0,3dd7011c,aa48,a9fb,000,01,5,0,1,1,0
366,366,0,3dd70121,aa48,2499,000,01,5,0,1,1,0
367,367,0,3dd70278,aa48,a6ba,000,01,5,0,1,1,0
368,368,0,3dd70a19,aa48,2dfa,000,01,5,0,1,1,0
369,369,0,3dd70a9d,aa48,3274,000,01,5,0,1,1,0
370,370,0,3dd70adb,aa48,ac53,000,01,5,0,1,1,0
371,371,0,3dd70b23,aa48,2041,000,01,5,0,1,1,0
372,372,0,3dd70b5f,aa48,2b67,000,01,5,0,1,1,0
373,373,0,3dd70b65,aa48,ac9f,000,01,5,0,1,1,0
374,374,0,3dd70bd6,aa48,2b46,000,01,5,0,1,1,0
375,375,0,3dd70c36,aa48,3054,000,01,5,0,1,1,0
376,376,0,3dd70c6c,aa48,9ad8,000,01,5,0,1,1,0
377,377,0,3dd70ca2,aa48,252e,000,01,5,0,1,1,0
378,378,0,3dd70cb2,aa48,1551,000,01,5,0,1,1,0
379,379,0,3dd70cda,aa48,ae9e,000,01,5,0,1,1,0
380,380,0,3dd70d42,aa48,2c7c,000,01,5,0,1,1,0
381,381,0,3dd70db7,aa48,8de4,000,01,5,0,1,1,0
382,382,0,3dd71080,aa48,ae35,000,01,5,0,1,1,0
383,383,0,3dd7127d,aa48,b00a,000,01,5,0,1,1,0
384,384,0,3dd712d8,aa48,3471,000,01,5,0,1,1,0
385,385,0,3dd712dd,aa48,2993,000,01,5,0,1,1,0
386,386,0,3dd712fc,aa48,ad5d,000,01,5,0,1,1,0
387,387,0,3dd7253e,aa48,28f0,000,01,5,0,1,1,0
388,388,0,3dd72542,aa48,b34b,000,01,5,0,1,1,0
389,389,0,3dd7256e,aa48,ac57,000,01,5,0,1,1,0
390,390,0,3dd725db,aa48,ac89,000,01,5,0,1,1,0
391,391,0,3dd72666,aa48,2a9f,000,01,5,0,1,1,0
392,392,0,3dd72843,aa48,2806,000,01,5,0,1,1,0
393,393,0,3dd7285d,aa48,2cfb,000,01,5,0,1,1,0
394,394,0,3dd72978,aa48,aa91,000,01,5,0,1,1,0
395,395,0,3dd72aff,aa48,2da9,000,01,5,0,1,1,0
396,396,0,3dd72dca,aa48,294d,000,01,5,0,1,1,0
397,397,0,3dd72e11,aa48,2ea7,000,01,5,0,1,1,0
398,398,0,3dd72e1c,aa48,ab6c,000,01,5,0,1,1,0
399,399,0,3dd72e32,aa48,2968,000,01,5,0,1,1,0
400,400,0,3dd72f50,aa48,2db9,000,01,5,0,1,1,0
401,401,0,3dd73485,aa48,ab7d,000,01,5,0,1,1,0
402,402,0,3dd7351a,aa48,b066,000,01,5,0,1,1,0
403,403,0,3dd7351c,aa48,2dce,000,01,5,0,1,1,0
404,404,0,3dd7358a,aa48,29a5,000,01,5,0,1,1,0
405,405,0,3dd73635,aa48,2f60,000,01,5,0,1,1,0
406,406,0,3dd7369f,aa48,2bd3,000,01,5,0,1,1,0
407,407,0,3dd738f6,aa48,24c4,000,01,5,0,1,1,0
408,408,0,3dd738f6,aa48,2da9,000,01,5,0,1,1,0
409,409,0,3dd73904,aa48,1c17,000,01,5,0,1,1,0
410,410,0,3dd73904,aa48,1d45,000,01,5,0,1,1,0
411,411,0,3dd73a62,aa48,b051,000,01,5,0,1,1,0
412,412,0,3dd73b03,aa48,302c,000,01,5,0,1,1,0
413,413,0,3dd73b03,aa48,90b5,000,01,5,0,1,1,0
414,414,0,3dd73c37,aa48,2529,000,01,5,0,1,1,0
415,415,0,3dd73e41,aa48,2c96,000,01,5,0,1,1,0
416,416,0,3dd7481e,aa48,2dae,000,01,5,0,1,1,0
417,417,0,3dd7485c,aa48,b1d5,000,01,5,0,1,1,0
418,418,0,3dd74943,aa48,2d20,000,01,5,0,1,1,0
419,419,0,3dd74973,aa48,2a2b,000,01,5,0,1,1,0
420,420,0,3dd75019,aa48,2b70,000,01,5,0,1,1,0
