Sample in Buffer,Sample in Window,TRIGGER,top_i/DataPath_xN_0/U0/coreArea_3_core/axi/int_bus_payload_tuser[5:0],top_i/DataPath_xN_0/U0/coreArea_3_core/ln/rmsNorm/rsqrtIn_payload[31:0],top_i/DataPath_xN_0/U0/coreArea_3_core/ln/rmsNorm/io_toBeNorm_payload[15:0],top_i/DataPath_xN_0/U0/coreArea_3_core/ln/rmsNorm/io_normOut_payload[15:0],top_i/DataPath_xN_0/U0/coreArea_3_core/stateGen_4/status_layerCnt[4:0],top_i/DataPath_xN_0/U0/coreArea_3_core/stateGen_4/status_token[9:0],top_i/DataPath_xN_0/U0/coreArea_3_core/ln/rmsNorm/io_normOut_valid,top_i/DataPath_xN_0/U0/coreArea_3_core/ln/rmsNorm/io_toBeNorm_valid,top_i/DataPath_xN_0/U0/coreArea_3_core/ln/rmsNorm/isAttnLn,top_i/DataPath_xN_0/U0/coreArea_3_core/ln/rmsNorm/rsqrtIn_valid
Radix - UNSIGNED,UNSIGNED,UNSIGNED,HEX,HEX,HEX,HEX,HEX,HEX,HEX,HEX,HEX,HEX
0,0,0,0b,3abf57a3,1dbc,2028,00,000,0,1,0,0
1,1,0,0b,3abf57a3,a40e,2028,00,000,0,0,0,0
2,2,0,0b,3abf57a3,a40e,2028,00,000,0,0,0,0
3,3,0,0b,3abf57a3,a40e,2028,00,000,0,0,0,0
4,4,0,0b,3abf57a3,a40e,2028,00,000,0,0,0,0
5,5,0,0b,3abf57a3,a40e,2028,00,000,0,0,0,0
6,6,0,0b,3abf57a3,a40e,2028,00,000,0,0,0,0
7,7,0,0b,3abf57a3,a40e,2028,00,000,0,0,0,0
8,8,0,0b,3abf5e4f,a3ca,2028,00,000,0,1,0,0
9,9,0,0b,3abf5e4f,a40e,2028,00,000,0,0,0,0
10,10,0,0b,3abf5e4f,a40e,2028,00,000,0,0,0,0
11,11,0,0b,3abf5e4f,a40e,2028,00,000,0,0,0,0
12,12,0,0b,3abf5e4f,a40e,2028,00,000,0,0,0,0
13,13,0,0b,3abf5e4f,a40e,2028,00,000,0,0,0,0
14,14,0,0b,3abf5e4f,a40e,2028,00,000,0,0,0,0
15,15,0,0b,3abf5e4f,a40e,2028,00,000,0,0,0,0
16,16,0,0b,3abf5e55,a40e,2028,00,000,0,0,0,0
17,17,0,0b,3abf5e55,a40e,2028,00,000,0,0,0,0
18,18,0,0b,3abf5e55,a40e,2028,00,000,0,0,0,0
19,19,0,0b,3abf5e55,a40e,2028,00,000,0,0,0,0
20,20,0,0b,3abf5e55,a40e,2028,00,000,0,0,0,0
21,21,0,0b,3abf5e55,9f47,2028,00,000,0,0,0,0
22,22,0,0b,3abf5e55,25c3,2028,00,000,0,0,0,0
23,23,0,0b,3abf5e55,a0cc,2028,00,000,0,0,0,0
24,24,0,0b,3abf5fb8,14a0,2028,00,000,0,0,0,0
25,25,0,0b,3abf5fb8,14a0,2028,00,000,0,0,0,0
26,26,0,0b,3abf5fb8,14a0,2028,00,000,0,0,0,0
27,27,0,0b,3abf5fb8,14a0,2028,00,000,0,0,0,0
28,28,0,0b,3abf5fb8,14a0,2028,00,000,0,0,0,0
29,29,0,0b,3abf5fb8,14a0,2028,00,000,0,0,0,0
30,30,0,0b,3abf5fb8,14a0,2028,00,000,0,0,0,0
31,31,0,0b,3abf5fb8,14a0,2028,00,000,0,0,0,0
32,32,0,0b,3abf5ffa,a4fc,2028,00,000,0,0,0,0
33,33,0,0b,3abf5ffa,21d4,2028,00,000,0,0,0,0
34,34,0,0b,3abf5ffa,a771,2028,00,000,0,0,0,0
35,35,0,0b,3abf5ffa,28aa,2028,00,000,0,0,0,0
36,36,0,0b,3abf5ffa,a08d,2028,00,000,0,0,0,0
37,37,0,0b,3abf5ffa,28bf,2028,00,000,0,0,0,0
38,38,0,0b,3abf5ffa,a95f,2028,00,000,0,0,0,0
39,39,0,0b,3abf5ffa,a63a,2028,00,000,0,0,0,0
40,40,0,0b,3abf61df,2867,2028,00,000,0,0,0,0
41,41,0,0b,3abf61df,a7df,2028,00,000,0,0,0,0
42,42,0,0b,3abf61df,21fa,2028,00,000,0,0,0,0
43,43,0,0b,3abf61df,24e1,2028,00,000,0,0,0,0
44,44,0,0b,3abf61df,a226,2028,00,000,0,0,0,0
45,45,0,0b,3abf61df,25ec,2028,00,000,0,0,0,0
46,46,0,0b,3abf61df,27fc,2028,00,000,0,0,0,0
47,47,0,0b,3abf61df,a317,2028,00,000,0,0,0,0
48,48,0,0b,3abf61df,a2e1,2028,00,000,0,1,0,0
49,49,0,0b,3abf61df,9c6a,2028,00,000,0,0,0,0
50,50,0,0b,3abf61df,9ea1,2028,00,000,0,0,0,0
51,51,0,0b,3abf61df,9b21,2028,00,000,0,0,0,0
52,52,0,0b,3abf61df,210d,2028,00,000,0,1,0,0
53,53,0,0b,3abf61df,255a,2028,00,000,0,0,0,0
54,54,0,0b,3abf61df,1c05,2028,00,000,0,0,0,0
55,55,0,0b,3abf61df,289e,2028,00,000,0,0,0,0
56,56,0,0b,3abf61df,1d50,2028,00,000,0,1,0,0
57,57,0,0b,3abf61df,a8c0,2028,00,000,0,0,0,0
58,58,0,0b,3abf61df,2544,2028,00,000,0,0,0,0
59,59,0,0b,3abf61df,289e,2028,00,000,0,0,0,0
60,60,0,0b,3abf61df,a228,2028,00,000,0,1,0,0
61,61,0,0b,3abf61df,289e,2028,00,000,0,0,0,0
62,62,0,0b,3abf61df,289e,2028,00,000,0,0,0,0
63,63,0,0b,3abf61df,08ed,2028,00,000,0,0,0,0
64,64,0,0b,3abf61df,1f7a,2028,00,000,0,1,0,0
65,65,0,0b,3abf61df,1931,2028,00,000,0,0,0,0
66,66,0,0b,3abf61df,a2f6,2028,00,000,0,0,0,0
67,67,0,0b,3abf61df,08ed,2028,00,000,0,0,0,0
68,68,0,0b,3abf61df,20d0,2028,00,000,0,1,0,0
69,69,0,0b,3abf61df,08ed,2028,00,000,0,0,0,0
70,70,0,0b,3abf61df,08ed,2028,00,000,0,0,0,0
71,71,0,0b,3abf61df,9dea,2028,00,000,0,0,0,0
72,72,0,0b,3abf61df,29a0,2028,00,000,0,1,0,0
73,73,0,0b,3abf61df,96ac,2028,00,000,0,0,0,0
74,74,0,0b,3abf61df,a39e,2028,00,000,0,0,0,0
75,75,0,0b,3abf61df,9dea,2028,00,000,0,0,0,0
76,76,0,0b,3abf61df,98b6,2028,00,000,0,0,0,0
77,77,0,0b,3abf61df,0000,2028,00,000,0,0,0,0
78,78,0,0b,3abf61df,254f,2028,00,000,0,0,0,0
79,79,0,0b,3abf61df,2435,2028,00,000,0,0,0,0
80,80,0,0b,3abf635a,ab03,2028,00,000,0,1,0,0
81,81,0,0b,3abf635a,98b6,2028,00,000,0,0,0,0
82,82,0,0b,3abf635a,98b6,2028,00,000,0,0,0,0
83,83,0,0b,3abf635a,98b6,2028,00,000,0,0,0,0
84,84,0,0b,3abf6426,a0a5,2028,00,000,0,0,0,0
85,85,0,0b,3abf6426,a7e4,2028,00,000,0,0,0,0
86,86,0,0b,3abf6426,98a2,2028,00,000,0,0,0,0
87,87,0,0b,3abf6426,a46c,2028,00,000,0,0,0,0
88,88,0,0b,3abf645f,a8f3,2028,00,000,0,1,0,0
89,89,0,0b,3abf645f,a0a5,2028,00,000,0,0,0,0
90,90,0,0b,3abf645f,a0a5,2028,00,000,0,0,0,0
91,91,0,0b,3abf645f,a0a5,2028,00,000,0,0,0,0
92,92,0,0b,3abf658e,a0a5,2028,00,000,0,0,0,0
93,93,0,0b,3abf658e,a4d0,2028,00,000,0,1,0,0
94,94,0,0b,3abf658e,a4c5,2028,00,000,0,0,0,0
95,95,0,0b,3abf658e,265c,2028,00,000,0,0,0,0
96,96,0,0b,3abf65fe,a761,2028,00,000,0,0,0,0
97,97,0,0b,3abf65fe,2594,2028,00,000,0,0,0,0
98,98,0,0b,3abf65fe,a4c5,2028,00,000,0,0,0,0
99,99,0,0b,3abf65fe,a4c5,2028,00,000,0,0,0,0
100,100,0,0b,3abf66b7,a4c5,2028,00,000,0,0,0,0
101,101,0,0b,3abf66b7,9994,2028,00,000,0,1,0,0
102,102,0,0b,3abf66b7,236d,2028,00,000,0,0,0,0
103,103,0,0b,3abf66b7,a4cc,2028,00,000,0,0,0,0
104,104,0,0b,3abf7689,1c8b,2028,00,000,0,0,0,0
105,105,0,0b,3abf7689,9892,2028,00,000,0,0,0,0
106,106,0,0b,3abf7689,236d,2028,00,000,0,0,0,0
107,107,0,0b,3abf7689,236d,2028,00,000,0,0,0,0
108,108,0,0b,3abf7689,236d,2028,00,000,0,0,0,0
109,109,0,0b,3abf7689,236d,2028,00,000,0,0,0,0
110,110,0,0b,3abf7689,236d,2028,00,000,0,0,0,0
111,111,0,0b,3abf7689,a2d2,2028,00,000,0,1,0,0
112,112,0,0b,3abf8f1e,a0dd,2028,00,000,0,0,0,0
113,113,0,0b,3abf8f1e,1fde,2028,00,000,0,0,0,0
114,114,0,0b,3abf8f1e,9f72,2028,00,000,0,0,0,0
115,115,0,0b,3abf8f1e,a303,2028,00,000,0,0,0,0
116,116,0,0b,3abf8f1e,a303,2028,00,000,0,0,0,0
117,117,0,0b,3abf8f1e,a303,2028,00,000,0,0,0,0
118,118,0,0b,3abf8f1e,a303,2028,00,000,0,0,0,0
119,119,0,0b,3abf8f1e,a1c5,2028,00,000,0,1,0,0
120,120,0,0b,3abf9b5d,a41e,2028,00,000,0,0,0,0
121,121,0,0b,3abf9b5d,a61a,2028,00,000,0,0,0,0
122,122,0,0b,3abf9b5d,24b7,2028,00,000,0,0,0,0
123,123,0,0b,3abf9b5d,8972,2028,00,000,0,0,0,0
124,124,0,0b,3abf9b5d,8972,2028,00,000,0,0,0,0
125,125,0,0b,3abf9e42,9f06,2028,00,000,0,0,0,0
126,126,0,0b,3abf9e42,a006,2028,00,000,0,0,0,0
127,127,0,0b,3abf9e42,a433,2028,00,000,0,0,0,0
128,128,0,0b,3abf9e42,a55f,2028,00,000,0,1,0,0
129,129,0,0b,3abf9e42,9f06,2028,00,000,0,0,0,0
130,130,0,0b,3abf9e42,9f06,2028,00,000,0,0,0,0
131,131,0,0b,3abf9e42,9f06,2028,00,000,0,0,0,0
132,132,0,0b,3abf9e42,9f06,2028,00,000,0,0,0,0
133,133,0,0b,3abf9e52,9f06,2028,00,000,0,0,0,0
134,134,0,0b,3abf9e52,9f06,2028,00,000,0,0,0,0
135,135,0,0b,3abf9e52,9f06,2028,00,000,0,0,0,0
136,136,0,0b,3abf9e52,a40d,2028,00,000,0,1,0,0
137,137,0,0b,3abf9e52,250e,2028,00,000,0,0,0,0
138,138,0,0b,3abf9e52,a554,2028,00,000,0,0,0,0
139,139,0,0b,3abf9e52,a8c8,2028,00,000,0,0,0,0
140,140,0,0b,3abf9e52,a555,2028,00,000,0,0,0,0
141,141,0,0b,3abf9e52,a555,2028,00,000,0,0,0,0
142,142,0,0b,3abf9e52,a527,2028,00,000,0,1,0,0
143,143,0,0b,3abf9fc6,a0da,2028,00,000,0,0,0,0
144,144,0,0b,3abf9fc6,2514,2028,00,000,0,0,0,0
145,145,0,0b,3abf9fc6,1892,2028,00,000,0,0,0,0
146,146,0,0b,3abf9fc6,2bea,2028,00,000,0,0,0,0
147,147,0,0b,3abf9fc6,a0da,2028,00,000,0,0,0,0
148,148,0,0b,3abf9fc6,a0da,2028,00,000,0,0,0,0
149,149,0,0b,3abf9fc6,a0da,2028,00,000,0,0,0,0
150,150,0,0b,3abf9fc6,a0da,2028,00,000,0,0,0,0
151,151,0,0b,3abfa0d0,a0da,2028,00,000,0,0,0,0
152,152,0,0b,3abfa0d0,a0da,2028,00,000,0,0,0,0
153,153,0,0b,3abfa0d0,ab26,2028,00,000,0,1,0,0
154,154,0,0b,3abfa0d0,a8e3,2028,00,000,0,0,0,0
155,155,0,0b,3abfa0d0,15ce,2028,00,000,0,0,0,0
156,156,0,0b,3abfa0d0,2736,2028,00,000,0,0,0,0
157,157,0,0b,3abfa0d0,1f8a,2028,00,000,0,0,0,0
158,158,0,0b,3abfa0d0,1f8a,2028,00,000,0,0,0,0
159,159,0,0b,3abfa0d0,1f8a,2028,00,000,0,0,0,0
160,160,0,0b,3abfa46b,aa1e,2028,00,000,0,1,0,0
161,161,0,0b,3abfa46b,28f5,2028,00,000,0,0,0,0
162,162,0,0b,3abfa46b,248a,2028,00,000,0,0,0,0
163,163,0,0b,3abfa46b,9dd2,2028,00,000,0,0,0,0
164,164,0,0b,3abfa46b,21ce,2028,00,000,0,0,0,0
165,165,0,0b,3abfa46b,28f5,2028,00,000,0,0,0,0
166,166,0,0b,3abfa46b,28f5,2028,00,000,0,0,0,0
167,167,0,0b,3abfa46b,28f5,2028,00,000,0,0,0,0
168,168,0,0b,3abfa679,28f5,2028,00,000,0,0,0,0
169,169,0,0b,3abfa679,28f5,2028,00,000,0,0,0,0
170,170,0,0b,3abfa679,2841,2028,00,000,0,1,0,0
171,171,0,0b,3abfa679,a3fa,2028,00,000,0,0,0,0
172,172,0,0b,3abfa679,939b,2028,00,000,0,0,0,0
173,173,0,0b,3abfa679,27b2,2028,00,000,0,0,0,0
174,174,0,0b,3abfa9ca,8e49,2028,00,000,0,0,0,0
175,175,0,0b,3abfa9ca,8e49,2028,00,000,0,0,0,0
176,176,0,0b,3abfa9ca,8e49,2028,00,000,0,0,0,0
177,177,0,0b,3abfa9ca,8e49,2028,00,000,0,0,0,0
178,178,0,0b,3abfa9ca,2d81,2028,00,000,0,1,0,0
179,179,0,0b,3abfa9ca,2637,2028,00,000,0,0,0,0
180,180,0,0b,3abfa9ca,23eb,2028,00,000,0,0,0,0
181,181,0,0b,3abfa9ca,2446,2028,00,000,0,0,0,0
182,182,0,0b,3abfa9ca,a750,2028,00,000,0,0,0,0
183,183,0,0b,3abfa9ca,a750,2028,00,000,0,0,0,0
184,184,0,0b,3abfa9ca,a750,2028,00,000,0,0,0,0
185,185,0,0b,3abfc357,a750,2028,00,000,0,0,0,0
186,186,0,0b,3abfc357,21df,2028,00,000,0,0,0,0
187,187,0,0b,3abfc357,a147,2028,00,000,0,1,0,0
188,188,0,0b,3abfc357,946a,2028,00,000,0,0,0,0
189,189,0,0b,3abfc357,9e5c,2028,00,000,0,0,0,0
190,190,0,0b,3abfc357,21df,2028,00,000,0,0,0,0
191,191,0,0b,3abfc357,21df,2028,00,000,0,0,0,0
192,192,0,0b,3abfd60d,21df,2028,00,000,0,0,0,0
193,193,0,0b,3abfd60d,21df,2028,00,000,0,0,0,0
194,194,0,0b,3abfd60d,21df,2028,00,000,0,0,0,0
195,195,0,0b,3abfd60d,265c,2028,00,000,0,1,0,0
196,196,0,0b,3abfd60d,a5e0,2028,00,000,0,0,0,0
197,197,0,0b,3abfd60d,9d26,2028,00,000,0,0,0,0
198,198,0,0b,3abfd60d,a1d9,2028,00,000,0,0,0,0
199,199,0,0b,3abfd60d,212a,2028,00,000,0,0,0,0
200,200,0,0b,3abfd60d,212a,2028,00,000,0,0,0,0
201,201,0,0b,3abfd60d,212a,2028,00,000,0,0,0,0
202,202,0,0b,3abfdf19,212a,2028,00,000,0,0,0,0
203,203,0,0b,3abfdf19,2924,2028,00,000,0,1,0,0
204,204,0,0b,3abfdf19,204a,2028,00,000,0,0,0,0
205,205,0,0b,3abfdf19,1a91,2028,00,000,0,0,0,0
206,206,0,0b,3abfdf19,20f4,2028,00,000,0,0,0,0
207,207,0,0b,3abfdf19,98a6,2028,00,000,0,0,0,0
208,208,0,0b,3abfdf19,98a6,2028,00,000,0,0,0,0
209,209,0,0b,3abfdf19,98a6,2028,00,000,0,0,0,0
210,210,0,0b,3ac01baf,98a6,2028,00,000,0,0,0,0
211,211,0,0b,3ac01baf,22f3,2028,00,000,0,0,0,0
212,212,0,0b,3ac01baf,a528,2028,00,000,0,1,0,0
213,213,0,0b,3ac01baf,9c7f,2028,00,000,0,0,0,0
214,214,0,0b,3ac01baf,a32e,2028,00,000,0,0,0,0
215,215,0,0b,3ac01baf,22f3,2028,00,000,0,0,0,0
216,216,0,0b,3ac01baf,22f3,2028,00,000,0,0,0,0
217,217,0,0b,3ac01baf,22f3,2028,00,000,0,0,0,0
218,218,0,0b,3ac01baf,22f3,2028,00,000,0,0,0,0
219,219,0,0b,3ac01c8e,1ffe,2028,00,000,0,0,0,0
220,220,0,0b,3ac01c8e,a14b,2028,00,000,0,1,0,0
221,221,0,0b,3ac01c8e,1dd5,2028,00,000,0,0,0,0
222,222,0,0b,3ac01c8e,1f81,2028,00,000,0,0,0,0
223,223,0,0b,3ac01c8e,1ffe,2028,00,000,0,0,0,0
224,224,0,0b,3ac01c8e,1ffe,2028,00,000,0,0,0,0
225,225,0,0b,3ac01c8e,1ffe,2028,00,000,0,0,0,0
226,226,0,0b,3ac01c8e,1ffe,2028,00,000,0,0,0,0
227,227,0,0b,3ac0219c,a0c5,2028,00,000,0,0,0,0
228,228,0,0b,3ac0219c,2b24,2028,00,000,0,1,0,0
229,229,0,0b,3ac0219c,a136,2028,00,000,0,0,0,0
230,230,0,0b,3ac0219c,2c40,2028,00,000,0,0,0,0
231,231,0,0b,3ac0219c,a0c5,2028,00,000,0,0,0,0
232,232,0,0b,3ac0219c,a0c5,2028,00,000,0,0,0,0
233,233,0,0b,3ac0219c,a0c5,2028,00,000,0,0,0,0
234,234,0,0b,3ac0219c,a0c5,2028,00,000,0,0,0,0
235,235,0,0b,3ac02ed2,1226,2028,00,000,0,0,0,0
236,236,0,0b,3ac02ed2,9fbc,2028,00,000,0,1,0,0
237,237,0,0b,3ac02ed2,1c4a,2028,00,000,0,0,0,0
238,238,0,0b,3ac02ed2,a62f,2028,00,000,0,0,0,0
239,239,0,0b,3ac02ed2,1226,2028,00,000,0,0,0,0
240,240,0,0b,3ac02ed2,1226,2028,00,000,0,0,0,0
241,241,0,0b,3ac02ed2,1226,2028,00,000,0,0,0,0
242,242,0,0b,3ac02ed2,1226,2028,00,000,0,0,0,0
243,243,0,0b,3ac02ed2,1ba6,2028,00,000,0,0,0,0
244,244,0,0b,3ac03225,28a1,2028,00,000,0,1,0,0
245,245,0,0b,3ac03225,a7cb,2028,00,000,0,0,0,0
246,246,0,0b,3ac03225,233f,2028,00,000,0,0,0,0
247,247,0,0b,3ac03225,1ba6,2028,00,000,0,0,0,0
248,248,0,0b,3ac03225,1ba6,2028,00,000,0,0,0,0
249,249,0,0b,3ac03225,1ba6,2028,00,000,0,0,0,0
250,250,0,0b,3ac03225,1ba6,2028,00,000,0,0,0,0
251,251,0,0b,3ac03225,17dd,2028,00,000,0,0,0,0
252,252,0,0b,3ac03305,29e9,2028,00,000,0,1,0,0
253,253,0,0b,3ac03305,a299,2028,00,000,0,0,0,0
254,254,0,0b,3ac03305,20f0,2028,00,000,0,0,0,0
255,255,0,0b,3ac03305,17dd,2028,00,000,0,0,0,0
256,256,0,0b,3ac03305,17dd,2028,00,000,0,0,0,0
257,257,0,0b,3ac03305,17dd,2028,00,000,0,0,0,0
258,258,0,0b,3ac03305,17dd,2028,00,000,0,0,0,0
259,259,0,0b,3ac03305,a23f,2028,00,000,0,0,0,0
260,260,0,0b,3ac04c84,2832,2028,00,000,0,1,0,0
261,261,0,0b,3ac04c84,a299,2028,00,000,0,0,0,0
262,262,0,0b,3ac04c84,a299,2028,00,000,0,0,0,0
263,263,0,0b,3ac04c84,a299,2028,00,000,0,0,0,0
264,264,0,0b,3ac04c84,a299,2028,00,000,0,0,0,0
265,265,0,0b,3ac04c84,a299,2028,00,000,0,0,0,0
266,266,0,0b,3ac04c84,a299,2028,00,000,0,0,0,0
267,267,0,0b,3ac04c84,a299,2028,00,000,0,0,0,0
268,268,0,0b,3ac04cfb,a01a,2028,00,000,0,1,0,0
269,269,0,0b,3ac04cfb,a299,2028,00,000,0,0,0,0
270,270,0,0b,3ac04cfb,a299,2028,00,000,0,0,0,0
271,271,0,0b,3ac04cfb,a299,2028,00,000,0,0,0,0
272,272,0,0b,3ac04cfb,a299,2028,00,000,0,0,0,0
273,273,0,0b,3ac04cfb,a299,2028,00,000,0,0,0,0
274,274,0,0b,3ac04cfb,a299,2028,00,000,0,0,0,0
275,275,0,0b,3ac04cfb,a299,2028,00,000,0,0,0,0
276,276,0,0b,3ac057b2,a0d9,2028,00,000,0,1,0,0
277,277,0,0b,3ac057b2,a299,2028,00,000,0,0,0,0
278,278,0,0b,3ac057b2,a299,2028,00,000,0,0,0,0
279,279,0,0b,3ac057b2,a299,2028,00,000,0,0,0,0
280,280,0,0b,3ac057b2,a299,2028,00,000,0,0,0,0
281,281,0,0b,3ac057b2,a299,2028,00,000,0,0,0,0
282,282,0,0b,3ac057b2,a299,2028,00,000,0,0,0,0
283,283,0,0b,3ac057b2,a299,2028,00,000,0,0,0,0
284,284,0,0b,3ac06929,a299,2028,00,000,0,0,0,0
285,285,0,0b,3ac06929,a299,2028,00,000,0,0,0,0
286,286,0,0b,3ac06929,a299,2028,00,000,0,0,0,0
287,287,0,0b,3ac06929,a299,2028,00,000,0,0,0,0
288,288,0,0b,3ac06929,a299,2028,00,000,0,0,0,0
289,289,0,0b,3ac06929,0eae,2028,00,000,0,0,0,0
290,290,0,0b,3ac06929,2738,2028,00,000,0,0,0,0
291,291,0,0b,3ac06929,9f8c,2028,00,000,0,0,0,0
292,292,0,0b,3ac071f6,1e1e,2028,00,000,0,0,0,0
293,293,0,0b,3ac071f6,1e1e,2028,00,000,0,0,0,0
294,294,0,0b,3ac071f6,1e1e,2028,00,000,0,0,0,0
295,295,0,0b,3ac071f6,1e1e,2028,00,000,0,0,0,0
296,296,0,0b,3ac071f6,1e1e,2028,00,000,0,0,0,0
297,297,0,0b,3ac071f6,1e1e,2028,00,000,0,0,0,0
298,298,0,0b,3ac071f6,1e1e,2028,00,000,0,0,0,0
299,299,0,0b,3ac071f6,1e1e,2028,00,000,0,0,0,0
300,300,0,0b,3ac0727d,a7e2,2028,00,000,0,0,0,0
301,301,0,0b,3ac0727d,2564,2028,00,000,0,0,0,0
302,302,0,0b,3ac0727d,2913,2028,00,000,0,0,0,0
303,303,0,0b,3ac0727d,a4cb,2028,00,000,0,0,0,0
304,304,0,0b,3ac0727d,a89b,2028,00,000,0,0,0,0
305,305,0,0b,3ac0727d,a2aa,2028,00,000,0,0,0,0
306,306,0,0b,3ac0727d,20d2,2028,00,000,0,0,0,0
307,307,0,0b,3ac0727d,a1f4,2028,00,000,0,0,0,0
308,308,0,0b,3ac07339,1df7,2028,00,000,0,0,0,0
309,309,0,0b,3ac07339,a6ae,2028,00,000,0,0,0,0
310,310,0,0b,3ac07339,2922,2028,00,000,0,0,0,0
311,311,0,0b,3ac07339,a08e,2028,00,000,0,0,0,0
312,312,0,0b,3ac07339,a6ba,2028,00,000,0,0,0,0
313,313,0,0b,3ac07339,23ae,2028,00,000,0,0,0,0
314,314,0,0b,3ac07339,2113,2028,00,000,0,0,0,0
315,315,0,0b,3ac07339,2272,2028,00,000,0,0,0,0
316,316,0,0b,3ac07339,a0e4,2028,00,000,0,1,0,0
317,317,0,0b,3ac07339,a26f,2028,00,000,0,0,0,0
318,318,0,0b,3ac07339,2277,2028,00,000,0,0,0,0
319,319,0,0b,3ac07339,a50a,2028,00,000,0,0,0,0
320,320,0,0b,3ac07339,1e24,2028,00,000,0,1,0,0
321,321,0,0b,3ac07339,23a8,2028,00,000,0,0,0,0
322,322,0,0b,3ac07339,16c0,2028,00,000,0,0,0,0
323,323,0,0b,3ac07339,1f11,2028,00,000,0,0,0,0
324,324,0,0b,3ac07339,a0d0,2028,00,000,0,1,0,0
325,325,0,0b,3ac07339,a545,2028,00,000,0,0,0,0
326,326,0,0b,3ac07339,29d7,2028,00,000,0,0,0,0
327,327,0,0b,3ac07339,1f11,2028,00,000,0,0,0,0
328,328,0,0b,3ac07339,a56b,2028,00,000,0,1,0,0
329,329,0,0b,3ac07339,1f11,2028,00,000,0,0,0,0
330,330,0,0b,3ac07339,1f11,2028,00,000,0,0,0,0
331,331,0,0b,3ac07339,a094,2028,00,000,0,0,0,0
332,332,0,0b,3ac07339,24ad,2028,00,000,0,1,0,0
333,333,0,0b,3ac07339,9b92,2028,00,000,0,0,0,0
334,334,0,0b,3ac07339,a201,2028,00,000,0,0,0,0
335,335,0,0b,3ac07339,a094,2028,00,000,0,0,0,0
336,336,0,0b,3ac07339,a40a,2028,00,000,0,1,0,0
337,337,0,0b,3ac07339,a094,2028,00,000,0,0,0,0
338,338,0,0b,3ac07339,a094,2028,00,000,0,0,0,0
339,339,0,0b,3ac07339,9ac4,2028,00,000,0,0,0,0
340,340,0,0b,3ac07339,9e1f,2028,00,000,0,1,0,0
341,341,0,0b,3ac07339,2715,2028,00,000,0,0,0,0
342,342,0,0b,3ac07339,22e8,2028,00,000,0,0,0,0
343,343,0,0b,3ac07339,9ac4,2028,00,000,0,0,0,0
344,344,0,0b,3ac07339,25bc,2028,00,000,0,0,0,0
345,345,0,0b,3ac07339,a583,2028,00,000,0,0,0,0
346,346,0,0b,3ac07339,1c98,2028,00,000,0,0,0,0
347,347,0,0b,3ac07339,213b,2028,00,000,0,0,0,0
348,348,0,0b,3ac073f8,2522,2028,00,000,0,1,0,0
349,349,0,0b,3ac073f8,25bc,2028,00,000,0,0,0,0
350,350,0,0b,3ac073f8,25bc,2028,00,000,0,0,0,0
351,351,0,0b,3ac073f8,25bc,2028,00,000,0,0,0,0
352,352,0,0b,3ac07443,2105,2028,00,000,0,0,0,0
353,353,0,0b,3ac07443,a91c,2028,00,000,0,0,0,0
354,354,0,0b,3ac07443,982f,2028,00,000,0,0,0,0
355,355,0,0b,3ac07443,a70c,2028,00,000,0,0,0,0
356,356,0,0b,3ac074fd,2460,2028,00,000,0,1,0,0
357,357,0,0b,3ac074fd,2105,2028,00,000,0,0,0,0
358,358,0,0b,3ac074fd,2105,2028,00,000,0,0,0,0
359,359,0,0b,3ac074fd,2105,2028,00,000,0,0,0,0
360,360,0,0b,3ac078a8,2105,2028,00,000,0,0,0,0
361,361,0,0b,3ac078a8,2961,2028,00,000,0,1,0,0
362,362,0,0b,3ac078a8,a874,2028,00,000,0,0,0,0
363,363,0,0b,3ac078a8,2484,2028,00,000,0,0,0,0
364,364,0,0b,3ac07b64,a208,2028,00,000,0,0,0,0
365,365,0,0b,3ac07b64,2119,2028,00,000,0,0,0,0
366,366,0,0b,3ac07b64,a874,2028,00,000,0,0,0,0
367,367,0,0b,3ac07b64,a874,2028,00,000,0,0,0,0
368,368,0,0b,3ac07d6e,a874,2028,00,000,0,0,0,0
369,369,0,0b,3ac07d6e,a3e4,2028,00,000,0,1,0,0
370,370,0,0b,3ac07d6e,2076,2028,00,000,0,0,0,0
371,371,0,0b,3ac07d6e,9438,2028,00,000,0,0,0,0
372,372,0,0b,3ac07db9,9d99,2028,00,000,0,0,0,0
373,373,0,0b,3ac07db9,99ae,2028,00,000,0,0,0,0
374,374,0,0b,3ac07db9,2076,2028,00,000,0,0,0,0
375,375,0,0b,3ac07db9,2076,2028,00,000,0,0,0,0
376,376,0,0b,3ac07db9,2076,2028,00,000,0,0,0,0
377,377,0,0b,3ac07db9,2076,2028,00,000,0,0,0,0
378,378,0,0b,3ac07db9,2076,2028,00,000,0,0,0,0
379,379,0,0b,3ac07db9,a9fa,2028,00,000,0,1,0,0
380,380,0,0b,3ac08104,a2a8,2028,00,000,0,0,0,0
381,381,0,0b,3ac08104,19fb,2028,00,000,0,0,0,0
382,382,0,0b,3ac08104,97af,2028,00,000,0,0,0,0
383,383,0,0b,3ac08104,1786,2028,00,000,0,0,0,0
384,384,0,0b,3ac08104,1786,2028,00,000,0,0,0,0
385,385,0,0b,3ac08104,1786,2028,00,000,0,0,0,0
386,386,0,0b,3ac08104,1786,2028,00,000,0,0,0,0
387,387,0,0b,3ac08104,1e00,2028,00,000,0,1,0,0
388,388,0,0b,3ac08368,2532,2028,00,000,0,0,0,0
389,389,0,0b,3ac08368,a18a,2028,00,000,0,0,0,0
390,390,0,0b,3ac08368,1830,2028,00,000,0,0,0,0
391,391,0,0b,3ac08368,a012,2028,00,000,0,0,0,0
392,392,0,0b,3ac08368,a012,2028,00,000,0,0,0,0
393,393,0,0b,3ac091df,17f0,2028,00,000,0,0,0,0
394,394,0,0b,3ac091df,2667,2028,00,000,0,0,0,0
395,395,0,0b,3ac091df,2271,2028,00,000,0,0,0,0
396,396,0,0b,3ac091df,a4f7,2028,00,000,0,1,0,0
397,397,0,0b,3ac091df,17f0,2028,00,000,0,0,0,0
398,398,0,0b,3ac091df,17f0,2028,00,000,0,0,0,0
399,399,0,0b,3ac091df,17f0,2028,00,000,0,0,0,0
400,400,0,0b,3ac091df,17f0,2028,00,000,0,0,0,0
401,401,0,0b,3ac093d2,17f0,2028,00,000,0,0,0,0
402,402,0,0b,3ac093d2,17f0,2028,00,000,0,0,0,0
403,403,0,0b,3ac093d2,17f0,2028,00,000,0,0,0,0
404,404,0,0b,3ac093d2,22da,2028,00,000,0,1,0,0
405,405,0,0b,3ac093d2,a8a7,2028,00,000,0,0,0,0
406,406,0,0b,3ac093d2,a34d,2028,00,000,0,0,0,0
407,407,0,0b,3ac093d2,93c9,2028,00,000,0,0,0,0
408,408,0,0b,3ac093d2,a51d,2028,00,000,0,0,0,0
409,409,0,0b,3ac093d2,a51d,2028,00,000,0,0,0,0
410,410,0,0b,3ac093d2,24a7,2028,00,000,0,1,0,0
411,411,0,0b,3ac0a5ae,a25d,2028,00,000,0,0,0,0
412,412,0,0b,3ac0a5ae,9b41,2028,00,000,0,0,0,0
